! Created with skrf 1.12.0 (http://scikit-rf.org).
# Hz S RI R 50.0 
!freq ReS11 ImS11 ReS12 ImS12 ReS13 ImS13
! ReS14 ImS14
! ReS21 ImS21 ReS22 ImS22 ReS23 ImS23
! ReS24 ImS24
! ReS31 ImS31 ReS32 ImS32 ReS33 ImS33
! ReS34 ImS34
! ReS41 ImS41 ReS42 ImS42 ReS43 ImS43
! ReS44 ImS44
!
0.0 0.024999999999999998 0.0 -0.024999999999999998 0.0 0.6749999999999998 0.0 0.32499999999999996 0.0
 -0.024999999999999998 0.0 0.024999999999999998 0.0 0.32499999999999996 0.0 0.6749999999999998 0.0
 0.6749999999999998 0.0 0.32499999999999996 0.0 0.024999999999999998 0.0 -0.024999999999999998 0.0
 0.32499999999999996 0.0 0.6749999999999998 0.0 -0.024999999999999998 0.0 0.024999999999999998 0.0
100000000.0 0.024999999999999998 0.0 -0.024999999999999998 0.0 0.6375657007262241 -0.07871817966082197 0.3310107948063437 -0.029226649258265913
 -0.024999999999999998 0.0 0.024999999999999998 0.0 0.3310107948063437 -0.029226649258265913 0.6375657007262241 -0.07871817966082197
 0.6375657007262241 -0.07871817966082197 0.3310107948063437 -0.029226649258265913 0.024999999999999998 0.0 -0.024999999999999998 0.0
 0.3310107948063437 -0.029226649258265913 0.6375657007262241 -0.07871817966082197 -0.024999999999999998 0.0 0.024999999999999998 0.0
200000000.0 0.024999999999999998 0.0 -0.024999999999999998 0.0 0.6141434656911449 -0.1370998462972758 0.328691676500826 -0.062222031145239186
 -0.024999999999999998 0.0 0.024999999999999998 0.0 0.328691676500826 -0.062222031145239186 0.6141434656911449 -0.1370998462972758
 0.6141434656911449 -0.1370998462972758 0.328691676500826 -0.062222031145239186 0.024999999999999998 0.0 -0.024999999999999998 0.0
 0.328691676500826 -0.062222031145239186 0.6141434656911449 -0.1370998462972758 -0.024999999999999998 0.0 0.024999999999999998 0.0
300000000.0 0.024999999999999998 0.0 -0.024999999999999998 0.0 0.5893960331384542 -0.19059900409947192 0.3220855552115431 -0.0949859780025568
 -0.024999999999999998 0.0 0.024999999999999998 0.0 0.3220855552115431 -0.0949859780025568 0.5893960331384542 -0.19059900409947192
 0.5893960331384542 -0.19059900409947192 0.3220855552115431 -0.0949859780025568 0.024999999999999998 0.0 -0.024999999999999998 0.0
 0.3220855552115431 -0.0949859780025568 0.5893960331384542 -0.19059900409947192 -0.024999999999999998 0.0 0.024999999999999998 0.0
400000000.0 0.024999999999999998 0.0 -0.024999999999999998 0.0 0.5621376695064804 -0.24044833277187916 0.3117271501482741 -0.12685568672886371
 -0.024999999999999998 0.0 0.024999999999999998 0.0 0.3117271501482741 -0.12685568672886371 0.5621376695064804 -0.24044833277187916
 0.5621376695064804 -0.24044833277187916 0.3117271501482741 -0.12685568672886371 0.024999999999999998 0.0 -0.024999999999999998 0.0
 0.3117271501482741 -0.12685568672886371 0.5621376695064804 -0.24044833277187916 -0.024999999999999998 0.0 0.024999999999999998 0.0
500000000.0 0.024999999999999998 0.0 -0.024999999999999998 0.0 0.532058621361314 -0.28696420924176613 0.2979425269598235 -0.1573917318611666
 -0.024999999999999998 0.0 0.024999999999999998 0.0 0.2979425269598235 -0.1573917318611666 0.532058621361314 -0.28696420924176613
 0.532058621361314 -0.28696420924176613 0.2979425269598235 -0.1573917318611666 0.024999999999999998 0.0 -0.024999999999999998 0.0
 0.2979425269598235 -0.1573917318611666 0.532058621361314 -0.28696420924176613 -0.024999999999999998 0.0 0.024999999999999998 0.0
600000000.0 0.024999999999999998 0.0 -0.024999999999999998 0.0 0.4991237357928141 -0.33018677611342506 0.2810096614009044 -0.1862385605760664
 -0.024999999999999998 0.0 0.024999999999999998 0.0 0.2810096614009044 -0.1862385605760664 0.4991237357928141 -0.33018677611342506
 0.4991237357928141 -0.33018677611342506 0.2810096614009044 -0.1862385605760664 0.024999999999999998 0.0 -0.024999999999999998 0.0
 0.2810096614009044 -0.1862385605760664 0.4991237357928141 -0.33018677611342506 -0.024999999999999998 0.0 0.024999999999999998 0.0
700000000.0 0.024999999999999998 0.0 -0.024999999999999998 0.0 0.4634230309690306 -0.37004654347959265 0.2611984316955568 -0.21309067404785642
 -0.024999999999999998 0.0 0.024999999999999998 0.0 0.2611984316955568 -0.21309067404785642 0.4634230309690306 -0.37004654347959265
 0.4634230309690306 -0.37004654347959265 0.2611984316955568 -0.21309067404785642 0.024999999999999998 0.0 -0.024999999999999998 0.0
 0.2611984316955568 -0.21309067404785642 0.4634230309690306 -0.37004654347959265 -0.024999999999999998 0.0 0.024999999999999998 0.0
800000000.0 0.024999999999999998 0.0 -0.024999999999999998 0.0 0.42511774817915465 -0.4064272237398206 0.23878392448935817 -0.2376813792994385
 -0.024999999999999998 0.0 0.024999999999999998 0.0 0.23878392448935817 -0.2376813792994385 0.42511774817915465 -0.4064272237398206
 0.42511774817915465 -0.4064272237398206 0.23878392448935817 -0.2376813792994385 0.024999999999999998 0.0 -0.024999999999999998 0.0
 0.23878392448935817 -0.2376813792994385 0.42511774817915465 -0.4064272237398206 -0.024999999999999998 0.0 0.024999999999999998 0.0
900000000.0 0.024999999999999998 0.0 -0.024999999999999998 0.0 0.3844160706903761 -0.43919501272947303 0.21405100234730182 -0.2597785819905124
 -0.024999999999999998 0.0 0.024999999999999998 0.0 0.21405100234730182 -0.2597785819905124 0.3844160706903761 -0.43919501272947303
 0.3844160706903761 -0.43919501272947303 0.21405100234730182 -0.2597785819905124 0.024999999999999998 0.0 -0.024999999999999998 0.0
 0.21405100234730182 -0.2597785819905124 0.3844160706903761 -0.43919501272947303 -0.024999999999999998 0.0 0.024999999999999998 0.0
1000000000.0 0.024999999999999998 0.0 -0.024999999999999998 0.0 0.3415602376137336 -0.4682143511880919 0.1872952898011932 -0.27918323059629063
 -0.024999999999999998 0.0 0.024999999999999998 0.0 0.1872952898011932 -0.27918323059629063 0.3415602376137336 -0.4682143511880919
 0.3415602376137336 -0.4682143511880919 0.1872952898011932 -0.27918323059629063 0.024999999999999998 0.0 -0.024999999999999998 0.0
 0.1872952898011932 -0.27918323059629063 0.3415602376137336 -0.4682143511880919 -0.024999999999999998 0.0 0.024999999999999998 0.0
1100000000.0 0.024999999999999998 0.0 -0.024999999999999998 0.0 0.29681867308975246 -0.49335735835297384 0.1588224499323543 -0.29572884048806847
 -0.024999999999999998 0.0 0.024999999999999998 0.0 0.1588224499323543 -0.29572884048806847 0.29681867308975246 -0.49335735835297384
 0.29681867308975246 -0.49335735835297384 0.1588224499323543 -0.29572884048806847 0.024999999999999998 0.0 -0.024999999999999998 0.0
 0.1588224499323543 -0.29572884048806847 0.29681867308975246 -0.49335735835297384 -0.024999999999999998 0.0 0.024999999999999998 0.0
1200000000.0 0.024999999999999998 0.0 -0.024999999999999998 0.0 0.25048054002029924 -0.5145099449387943 0.12894655058260088 -0.3092814376398843
 -0.024999999999999998 0.0 0.024999999999999998 0.0 0.12894655058260088 -0.3092814376398843 0.25048054002029924 -0.5145099449387943
 0.25048054002029924 -0.5145099449387943 0.12894655058260088 -0.3092814376398843 0.024999999999999998 0.0 -0.024999999999999998 0.0
 0.12894655058260088 -0.3092814376398843 0.25048054002029924 -0.5145099449387943 -0.024999999999999998 0.0 0.024999999999999998 0.0
1300000000.0 0.024999999999999998 0.0 -0.024999999999999998 0.0 0.2028515475449391 -0.5315760095061564 0.09798790773869889 -0.3197396098362905
 -0.024999999999999998 0.0 0.024999999999999998 0.0 0.09798790773869889 -0.3197396098362905 0.2028515475449391 -0.5315760095061564
 0.2028515475449391 -0.5315760095061564 0.09798790773869889 -0.3197396098362905 0.024999999999999998 0.0 -0.024999999999999998 0.0
 0.09798790773869889 -0.3197396098362905 0.2028515475449391 -0.5315760095061564 -0.024999999999999998 0.0 0.024999999999999998 0.0
1400000000.0 0.024999999999999998 0.0 -0.024999999999999998 0.0 0.15425044042076586 -0.5444804311604938 0.06627061626917358 -0.32703450402307765
 -0.024999999999999998 0.0 0.024999999999999998 0.0 0.06627061626917358 -0.32703450402307765 0.15425044042076586 -0.5444804311604938
 0.15425044042076586 -0.5444804311604938 0.06627061626917358 -0.32703450402307765 0.024999999999999998 0.0 -0.024999999999999998 0.0
 0.06627061626917358 -0.32703450402307765 0.15425044042076586 -0.5444804311604938 -0.024999999999999998 0.0 0.024999999999999998 0.0
1500000000.0 0.024999999999999998 0.0 -0.024999999999999998 0.0 0.10500587503805393 -0.5531712456320302 0.03411989466357583 -0.3311296807444491
 -0.024999999999999998 0.0 0.024999999999999998 0.0 0.03411989466357583 -0.3311296807444491 0.10500587503805393 -0.5531712456320302
 0.10500587503805393 -0.5531712456320302 0.03411989466357583 -0.3311296807444491 0.024999999999999998 0.0 -0.024999999999999998 0.0
 0.03411989466357583 -0.3311296807444491 0.10500587503805393 -0.5531712456320302 -0.024999999999999998 0.0 0.024999999999999998 0.0
1600000000.0 0.024999999999999998 0.0 -0.024999999999999998 0.0 0.05545352396626588 -0.5576212268302867 0.0018593282120662022 -0.33202077455378476
 -0.024999999999999998 0.0 0.024999999999999998 0.0 0.0018593282120662022 -0.33202077455378476 0.05545352396626588 -0.5576212268302867
 0.05545352396626588 -0.5576212268302867 0.0018593282120662022 -0.33202077455378476 0.024999999999999998 0.0 -0.024999999999999998 0.0
 0.0018593282120662022 -0.33202077455378476 0.05545352396626588 -0.5576212268302867 -0.024999999999999998 0.0 0.024999999999999998 0.0
1700000000.0 0.024999999999999998 0.0 -0.024999999999999998 0.0 0.0059333229648673375 -0.5578290075795774 -0.030191927580694576 -0.32973493098309076
 -0.024999999999999998 0.0 0.024999999999999998 0.0 -0.030191927580694576 -0.32973493098309076 0.0059333229648673375 -0.5578290075795774
 0.0059333229648673375 -0.5578290075795774 -0.030191927580694576 -0.32973493098309076 0.024999999999999998 0.0 -0.024999999999999998 0.0
 -0.030191927580694576 -0.32973493098309076 0.0059333229648673375 -0.5578290075795774 -0.024999999999999998 0.0 0.024999999999999998 0.0
1800000000.0 0.024999999999999998 0.0 -0.024999999999999998 0.0 -0.04321318597407101 -0.553819823633467 -0.06172193439947796 -0.3243300041742014
 -0.024999999999999998 0.0 0.024999999999999998 0.0 -0.06172193439947796 -0.3243300041742014 -0.04321318597407101 -0.553819823633467
 -0.04321318597407101 -0.553819823633467 -0.06172193439947796 -0.3243300041742014 0.024999999999999998 0.0 -0.024999999999999998 0.0
 -0.06172193439947796 -0.3243300041742014 -0.04321318597407101 -0.553819823633467 -0.024999999999999998 0.0 0.024999999999999998 0.0
1900000000.0 0.024999999999999998 0.0 -0.024999999999999998 0.0 -0.09164543935280461 -0.5456459361398045 -0.09242870813673391 -0.31589350844683073
 -0.024999999999999998 0.0 0.024999999999999998 0.0 -0.09242870813673391 -0.31589350844683073 -0.09164543935280461 -0.5456459361398045
 -0.09164543935280461 -0.5456459361398045 -0.09242870813673391 -0.31589350844683073 0.024999999999999998 0.0 -0.024999999999999998 0.0
 -0.09242870813673391 -0.31589350844683073 -0.09164543935280461 -0.5456459361398045 -0.024999999999999998 0.0 0.024999999999999998 0.0
2000000000.0 0.024999999999999998 0.0 -0.024999999999999998 0.0 -0.1390263751566171 -0.5333867703211653 -0.12202286935311563 -0.30454132382450283
 -0.024999999999999998 0.0 0.024999999999999998 0.0 -0.12202286935311563 -0.30454132382450283 -0.1390263751566171 -0.5333867703211653
 -0.1390263751566171 -0.5333867703211653 -0.12202286935311563 -0.30454132382450283 0.024999999999999998 0.0 -0.024999999999999998 0.0
 -0.12202286935311563 -0.30454132382450283 -0.1390263751566171 -0.5333867703211653 -0.024999999999999998 0.0 0.024999999999999998 0.0
2100000000.0 0.024999999999999998 0.0 -0.024999999999999998 0.0 -0.1850248965928475 -0.517148797385387 -0.15023017460192023 -0.2904161608591921
 -0.024999999999999998 0.0 0.024999999999999998 0.0 -0.15023017460192023 -0.2904161608591921 -0.1850248965928475 -0.517148797385387
 -0.1850248965928475 -0.517148797385387 -0.15023017460192023 -0.2904161608591921 0.024999999999999998 0.0 -0.024999999999999998 0.0
 -0.15023017460192023 -0.2904161608591921 -0.1850248965928475 -0.517148797385387 -0.024999999999999998 0.0 0.024999999999999998 0.0
2200000000.0 0.024999999999999998 0.0 -0.024999999999999998 0.0 -0.2293182741777908 -0.4970651799011491 -0.1767938989030161 -0.27368579452363884
 -0.024999999999999998 0.0 0.024999999999999998 0.0 -0.1767938989030161 -0.27368579452363884 -0.2293182741777908 -0.4970651799011491
 -0.2293182741777908 -0.4970651799011491 -0.1767938989030161 -0.27368579452363884 0.024999999999999998 0.0 -0.024999999999999998 0.0
 -0.1767938989030161 -0.27368579452363884 -0.2293182741777908 -0.4970651799011491 -0.024999999999999998 0.0 0.024999999999999998 0.0
2300000000.0 0.024999999999999998 0.0 -0.024999999999999998 0.0 -0.2715944807487852 -0.4732951965296185 -0.2014770421913655 -0.2545410807649649
 -0.024999999999999998 0.0 0.024999999999999998 0.0 -0.2014770421913655 -0.2545410807649649 -0.2715944807487852 -0.4732951965296185
 -0.2715944807487852 -0.4732951965296185 -0.2014770421913655 -0.2545410807649649 0.024999999999999998 0.0 -0.024999999999999998 0.0
 -0.2014770421913655 -0.2545410807649649 -0.2715944807487852 -0.4732951965296185 -0.024999999999999998 0.0 0.024999999999999998 0.0
2400000000.0 0.024999999999999998 0.0 -0.024999999999999998 0.0 -0.31155445210297683 -0.4460234591935358 -0.22406433501650455 -0.2331937726872707
 -0.024999999999999998 0.0 0.024999999999999998 0.0 -0.22406433501650455 -0.2331937726872707 -0.31155445210297683 -0.4460234591935358
 -0.31155445210297683 -0.4460234591935358 -0.22406433501650455 -0.2331937726872707 0.024999999999999998 0.0 -0.024999999999999998 0.0
 -0.22406433501650455 -0.2331937726872707 -0.31155445210297683 -0.4460234591935358 -0.024999999999999998 0.0 0.024999999999999998 0.0
2500000000.0 0.024999999999999998 0.0 -0.024999999999999998 0.0 -0.34891426479645243 -0.41545893394826355 -0.24436402126950998 -0.2098741563308268
 -0.024999999999999998 0.0 0.024999999999999998 0.0 -0.24436402126950998 -0.2098741563308268 -0.34891426479645243 -0.41545893394826355
 -0.34891426479645243 -0.41545893394826355 -0.24436402126950998 -0.2098741563308268 0.024999999999999998 0.0 -0.024999999999999998 0.0
 -0.24436402126950998 -0.2098741563308268 -0.34891426479645243 -0.41545893394826355 -0.024999999999999998 0.0 0.024999999999999998 0.0
2600000000.0 0.024999999999999998 0.0 -0.024999999999999998 0.0 -0.3834072219100979 -0.3818337756644479 -0.2622093983397905 -0.1848285286736233
 -0.024999999999999998 0.0 0.024999999999999998 0.0 -0.2622093983397905 -0.1848285286736233 -0.3834072219100979 -0.3818337756644479
 -0.3834072219100979 -0.3818337756644479 -0.2622093983397905 -0.1848285286736233 0.024999999999999998 0.0 -0.024999999999999998 0.0
 -0.2622093983397905 -0.1848285286736233 -0.3834072219100979 -0.3818337756644479 -0.024999999999999998 0.0 0.024999999999999998 0.0
2700000000.0 0.024999999999999998 0.0 -0.024999999999999998 0.0 -0.41478583713562645 -0.3454019859347843 -0.2774600978934087 -0.1583165428044422
 -0.024999999999999998 0.0 0.024999999999999998 0.0 -0.2774600978934087 -0.1583165428044422 -0.41478583713562645 -0.3454019859347843
 -0.41478583713562645 -0.3454019859347843 -0.2774600978934087 -0.1583165428044422 0.024999999999999998 0.0 -0.024999999999999998 0.0
 -0.2774600978934087 -0.1583165428044422 -0.41478583713562645 -0.3454019859347843 -0.024999999999999998 0.0 0.024999999999999998 0.0
2800000000.0 0.024999999999999998 0.0 -0.024999999999999998 0.0 -0.4428237072538888 -0.30643790325090825 -0.29000309342952924 -0.13060844719803716
 -0.024999999999999998 0.0 0.024999999999999998 0.0 -0.29000309342952924 -0.13060844719803716 -0.4428237072538888 -0.30643790325090825
 -0.4428237072538888 -0.30643790325090825 -0.29000309342952924 -0.13060844719803716 0.024999999999999998 0.0 -0.024999999999999998 0.0
 -0.29000309342952924 -0.13060844719803716 -0.4428237072538888 -0.30643790325090825 -0.024999999999999998 0.0 0.024999999999999998 0.0
2900000000.0 0.024999999999999998 0.0 -0.024999999999999998 0.0 -0.467317262905431 -0.26523453438159 -0.29975342390565246 -0.10198224764798942
 -0.024999999999999998 0.0 0.024999999999999998 0.0 -0.29975342390565246 -0.10198224764798942 -0.467317262905431 -0.26523453438159
 -0.467317262905431 -0.26523453438159 -0.29975342390565246 -0.10198224764798942 0.024999999999999998 0.0 -0.024999999999999998 0.0
 -0.29975342390565246 -0.10198224764798942 -0.467317262905431 -0.26523453438159 -0.024999999999999998 0.0 0.024999999999999998 0.0
3000000000.0 0.024999999999999998 0.0 -0.024999999999999998 0.0 -0.4880873874547728 -0.2221017359708084 -0.30665462600602944 -0.07272082166414286
 -0.024999999999999998 0.0 0.024999999999999998 0.0 -0.30665462600602944 -0.07272082166414286 -0.4880873874547728 -0.2221017359708084
 -0.4880873874547728 -0.2221017359708084 -0.30665462600602944 -0.07272082166414286 0.024999999999999998 0.0 -0.024999999999999998 0.0
 -0.30665462600602944 -0.07272082166414286 -0.4880873874547728 -0.2221017359708084 -0.024999999999999998 0.0 0.024999999999999998 0.0
3100000000.0 0.024999999999999998 0.0 -0.024999999999999998 0.0 -0.5049808937076673 -0.17736425563285302 -0.31067887103163677 -0.04310901600235359
 -0.024999999999999998 0.0 0.024999999999999998 0.0 -0.31067887103163677 -0.04310901600235359 -0.5049808937076673 -0.17736425563285302
 -0.5049808937076673 -0.17736425563285302 -0.31067887103163677 -0.04310901600235359 0.024999999999999998 0.0 -0.024999999999999998 0.0
 -0.31067887103163677 -0.04310901600235359 -0.5049808937076673 -0.17736425563285302 -0.024999999999999998 0.0 0.024999999999999998 0.0
3200000000.0 0.024999999999999998 0.0 -0.024999999999999998 0.0 -0.5178718482499509 -0.13135964223106877 -0.31182680587752704 -0.013430758450160802
 -0.024999999999999998 0.0 0.024999999999999998 0.0 -0.31182680587752704 -0.013430758450160802 -0.5178718482499509 -0.13135964223106877
 -0.5178718482499509 -0.13135964223106877 -0.31182680587752704 -0.013430758450160802 0.024999999999999998 0.0 -0.024999999999999998 0.0
 -0.31182680587752704 -0.013430758450160802 -0.5178718482499509 -0.13135964223106877 -0.024999999999999998 0.0 0.024999999999999998 0.0
3300000000.0 0.024999999999999998 0.0 -0.024999999999999998 0.0 -0.5266627332416031 -0.08443603557288516 -0.3101271010919713 0.016033784967589206
 -0.024999999999999998 0.0 0.024999999999999998 0.0 -0.3101271010919713 0.016033784967589206 -0.5266627332416031 -0.08443603557288516
 -0.5266627332416031 -0.08443603557288516 -0.3101271010919713 0.016033784967589206 0.024999999999999998 0.0 -0.024999999999999998 0.0
 -0.3101271010919713 0.016033784967589206 -0.5266627332416031 -0.08443603557288516 -0.024999999999999998 0.0 0.024999999999999998 0.0
3400000000.0 0.024999999999999998 0.0 -0.024999999999999998 0.0 -0.5312854356305176 -0.03694984642467591 -0.30563571253536614 0.0450109765796556
 -0.024999999999999998 0.0 0.024999999999999998 0.0 -0.30563571253536614 0.0450109765796556 -0.5312854356305176 -0.03694984642467591
 -0.5312854356305176 -0.03694984642467591 -0.30563571253536614 0.0450109765796556 0.024999999999999998 0.0 -0.024999999999999998 0.0
 -0.30563571253536614 0.0450109765796556 -0.5312854356305176 -0.03694984642467591 -0.024999999999999998 0.0 0.024999999999999998 0.0
3500000000.0 0.024999999999999998 0.0 -0.024999999999999998 0.0 -0.5317020539615925 0.010736661465573092 -0.29843486662669105 0.07323636747360344
 -0.024999999999999998 0.0 0.024999999999999998 0.0 -0.29843486662669105 0.07323636747360344 -0.5317020539615925 0.010736661465573092
 -0.5317020539615925 0.010736661465573092 -0.29843486662669105 0.07323636747360344 0.024999999999999998 0.0 -0.024999999999999998 0.0
 -0.29843486662669105 0.07323636747360344 -0.5317020539615925 0.010736661465573092 -0.024999999999999998 0.0 0.024999999999999998 0.0
3600000000.0 0.024999999999999998 0.0 -0.024999999999999998 0.0 -0.5279055132648428 0.05825787476414318 -0.2886317825314152 0.10045722294857257
 -0.024999999999999998 0.0 0.024999999999999998 0.0 -0.2886317825314152 0.10045722294857257 -0.5279055132648428 0.05825787476414318
