! Created with skrf 1.12.0 (http://scikit-rf.org).
# Hz S RI R 50.0 
!freq ReS11 ImS11 ReS12 ImS12 ReS13 ImS13
! ReS14 ImS14
! ReS21 ImS21 ReS22 ImS22 ReS23 ImS23
! ReS24 ImS24
! ReS31 ImS31 ReS32 ImS32 ReS33 ImS33
! ReS34 ImS34
! ReS41 ImS41 ReS42 ImS42 ReS43 ImS43
! ReS44 ImS44
!
0.0 0.0 0.0 0.0 0.0 0.9999999999999998 0.0 2.2371143170757382e-17 0.0
 0.0 0.0 0.0 0.0 2.2371143170757382e-17 0.0 0.9999999999999998 0.0
 0.9999999999999998 0.0 2.2371143170757382e-17 0.0 0.0 0.0 0.0 0.0
 2.2371143170757382e-17 0.0 0.9999999999999998 0.0 0.0 0.0 0.0 0.0
100000000.0 0.024999999999999998 0.0 -0.024999999999999998 0.0 0.9640458564669193 -0.1108797798009693 0.004530639065648462 0.0029349508818814134
 -0.024999999999999998 0.0 0.024999999999999998 0.0 0.004530639065648462 0.0029349508818814134 0.9640458564669193 -0.1108797798009693
 0.9640458564669193 -0.1108797798009693 0.004530639065648462 0.0029349508818814134 0.024999999999999998 0.0 -0.024999999999999998 0.0
 0.004530639065648462 0.0029349508818814134 0.9640458564669193 -0.1108797798009693 -0.024999999999999998 0.0 0.024999999999999998 0.0
200000000.0 0.024999999999999998 0.0 -0.024999999999999998 0.0 0.9360891976309872 -0.20256878085998462 0.00674594456098365 0.003246903417469633
 -0.024999999999999998 0.0 0.024999999999999998 0.0 0.00674594456098365 0.003246903417469633 0.9360891976309872 -0.20256878085998462
 0.9360891976309872 -0.20256878085998462 0.00674594456098365 0.003246903417469633 0.024999999999999998 0.0 -0.024999999999999998 0.0
 0.00674594456098365 0.003246903417469633 0.9360891976309872 -0.20256878085998462 -0.024999999999999998 0.0 0.024999999999999998 0.0
300000000.0 0.024999999999999998 0.0 -0.024999999999999998 0.0 0.9029279051347783 -0.28854870575846275 0.008553683215219042 0.002963723656434041
 -0.024999999999999998 0.0 0.024999999999999998 0.0 0.008553683215219042 0.002963723656434041 0.9029279051347783 -0.28854870575846275
 0.9029279051347783 -0.28854870575846275 0.008553683215219042 0.002963723656434041 0.024999999999999998 0.0 -0.024999999999999998 0.0
 0.008553683215219042 0.002963723656434041 0.9029279051347783 -0.28854870575846275 -0.024999999999999998 0.0 0.024999999999999998 0.0
400000000.0 0.024999999999999998 0.0 -0.024999999999999998 0.0 0.8637710863701042 -0.369603509327701 0.010093733284650228 0.0022994898269581353
 -0.024999999999999998 0.0 0.024999999999999998 0.0 0.010093733284650228 0.0022994898269581353 0.8637710863701042 -0.369603509327701
 0.8637710863701042 -0.369603509327701 0.010093733284650228 0.0022994898269581353 0.024999999999999998 0.0 -0.024999999999999998 0.0
 0.010093733284650228 0.0022994898269581353 0.8637710863701042 -0.369603509327701 -0.024999999999999998 0.0 0.024999999999999998 0.0
500000000.0 0.024999999999999998 0.0 -0.024999999999999998 0.0 0.8185967485767359 -0.4457058670677301 0.011404399744401612 0.001349925964797376
 -0.024999999999999998 0.0 0.024999999999999998 0.0 0.011404399744401612 0.001349925964797376 0.8185967485767359 -0.4457058670677301
 0.8185967485767359 -0.4457058670677301 0.011404399744401612 0.001349925964797376 0.024999999999999998 0.0 -0.024999999999999998 0.0
 0.011404399744401612 0.001349925964797376 0.8185967485767359 -0.4457058670677301 -0.024999999999999998 0.0 0.024999999999999998 0.0
600000000.0 0.024999999999999998 0.0 -0.024999999999999998 0.0 0.7676372618130511 -0.5165999839794001 0.012496135380667375 0.00017464728990866822
 -0.024999999999999998 0.0 0.024999999999999998 0.0 0.012496135380667375 0.00017464728990866822 0.7676372618130511 -0.5165999839794001
 0.7676372618130511 -0.5165999839794001 0.012496135380667375 0.00017464728990866822 0.024999999999999998 0.0 -0.024999999999999998 0.0
 0.012496135380667375 0.00017464728990866822 0.7676372618130511 -0.5165999839794001 -0.024999999999999998 0.0 0.024999999999999998 0.0
700000000.0 0.024999999999999998 0.0 -0.024999999999999998 0.0 0.7112519031181552 -0.5819555337216898 0.013369559546432073 -0.0011816838057592195
 -0.024999999999999998 0.0 0.024999999999999998 0.0 0.013369559546432073 -0.0011816838057592195 0.7112519031181552 -0.5819555337216898
 0.7112519031181552 -0.5819555337216898 0.013369559546432073 -0.0011816838057592195 0.024999999999999998 0.0 -0.024999999999999998 0.0
 0.013369559546432073 -0.0011816838057592195 0.7112519031181552 -0.5819555337216898 -0.024999999999999998 0.0 0.024999999999999998 0.0
800000000.0 0.024999999999999998 0.0 -0.024999999999999998 0.0 0.6498798535078588 -0.6414269523164662 0.014021819160654024 -0.0026816507227929217
 -0.024999999999999998 0.0 0.024999999999999998 0.0 0.014021819160654024 -0.0026816507227929217 0.6498798535078588 -0.6414269523164662
 0.6498798535078588 -0.6414269523164662 0.014021819160654024 -0.0026816507227929217 0.024999999999999998 0.0 -0.024999999999999998 0.0
 0.014021819160654024 -0.0026816507227929217 0.6498798535078588 -0.6414269523164662 -0.024999999999999998 0.0 0.024999999999999998 0.0
900000000.0 0.024999999999999998 0.0 -0.024999999999999998 0.0 0.5840177305486555 -0.6946818629595283 0.014449342489022425 -0.004291731760457096
 -0.024999999999999998 0.0 0.024999999999999998 0.0 0.014449342489022425 -0.004291731760457096 0.5840177305486555 -0.6946818629595283
 0.5840177305486555 -0.6946818629595283 0.014449342489022425 -0.004291731760457096 0.024999999999999998 0.0 -0.024999999999999998 0.0
 0.014449342489022425 -0.004291731760457096 0.5840177305486555 -0.6946818629595283 -0.024999999999999998 0.0 0.024999999999999998 0.0
1000000000.0 0.024999999999999998 0.0 -0.024999999999999998 0.0 0.514206327753218 -0.74141688208543 0.014649199661708889 -0.0059806996989525485
 -0.024999999999999998 0.0 0.024999999999999998 0.0 0.014649199661708889 -0.0059806996989525485 0.514206327753218 -0.74141688208543
 0.514206327753218 -0.74141688208543 0.014649199661708889 -0.0059806996989525485 0.024999999999999998 0.0 -0.024999999999999998 0.0
 0.014649199661708889 -0.0059806996989525485 0.514206327753218 -0.74141688208543 -0.024999999999999998 0.0 0.024999999999999998 0.0
1100000000.0 0.024999999999999998 0.0 -0.024999999999999998 0.0 0.44102128684845593 -0.7813673668848982 0.014619836173650813 -0.007718831956144095
 -0.024999999999999998 0.0 0.024999999999999998 0.0 0.014619836173650813 -0.007718831956144095 0.44102128684845593 -0.7813673668848982
 0.44102128684845593 -0.7813673668848982 0.014619836173650813 -0.007718831956144095 0.024999999999999998 0.0 -0.024999999999999998 0.0
 0.014619836173650813 -0.007718831956144095 0.44102128684845593 -0.7813673668848982 -0.024999999999999998 0.0 0.024999999999999998 0.0
1200000000.0 0.024999999999999998 0.0 -0.024999999999999998 0.0 0.3650656022544579 -0.8143138468923762 0.014361488348442237 -0.009477535686302404
 -0.024999999999999998 0.0 0.024999999999999998 0.0 0.014361488348442237 -0.009477535686302404 0.3650656022544579 -0.8143138468923762
 0.3650656022544579 -0.8143138468923762 0.014361488348442237 -0.009477535686302404 0.024999999999999998 0.0 -0.024999999999999998 0.0
 0.014361488348442237 -0.009477535686302404 0.3650656022544579 -0.8143138468923762 -0.024999999999999998 0.0 0.024999999999999998 0.0
1300000000.0 0.024999999999999998 0.0 -0.024999999999999998 0.0 0.2869630353116833 -0.840086418093445 0.013876419971954655 -0.011229201249001895
 -0.024999999999999998 0.0 0.024999999999999998 0.0 0.013876419971954655 -0.011229201249001895 0.2869630353116833 -0.840086418093445
 0.2869630353116833 -0.840086418093445 0.013876419971954655 -0.011229201249001895 0.024999999999999998 0.0 -0.024999999999999998 0.0
 0.013876419971954655 -0.011229201249001895 0.2869630353116833 -0.840086418093445 -0.024999999999999998 0.0 0.024999999999999998 0.0
1400000000.0 0.024999999999999998 0.0 -0.024999999999999998 0.0 0.20735200825500116 -0.8585677473436217 0.013169048434938263 -0.01294718783994977
 -0.024999999999999998 0.0 0.024999999999999998 0.0 0.013169048434938263 -0.01294718783994977 0.20735200825500116 -0.8585677473436217
 0.20735200825500116 -0.8585677473436217 0.013169048434938263 -0.01294718783994977 0.024999999999999998 0.0 -0.024999999999999998 0.0
 0.013169048434938263 -0.01294718783994977 0.20735200825500116 -0.8585677473436217 -0.024999999999999998 0.0 0.024999999999999998 0.0
1500000000.0 0.024999999999999998 0.0 -0.024999999999999998 0.0 0.1268797733027164 -0.8696950385280164 0.012245996398913366 -0.014605887848462902
 -0.024999999999999998 0.0 0.024999999999999998 0.0 0.012245996398913366 -0.014605887848462902 0.1268797733027164 -0.8696950385280164
 0.1268797733027164 -0.8696950385280164 0.012245996398913366 -0.014605887848462902 0.024999999999999998 0.0 -0.024999999999999998 0.0
 0.012245996398913366 -0.014605887848462902 0.1268797733027164 -0.8696950385280164 -0.024999999999999998 0.0 0.024999999999999998 0.0
1600000000.0 0.024999999999999998 0.0 -0.024999999999999998 0.0 0.046196762972305794 -0.8734611631023038 0.011116089206026282 -0.01618083828176768
 -0.024999999999999998 0.0 0.024999999999999998 0.0 0.011116089206026282 -0.01618083828176768 0.046196762972305794 -0.8734611631023038
 0.046196762972305794 -0.8734611631023038 0.011116089206026282 -0.01618083828176768 0.024999999999999998 0.0 -0.024999999999999998 0.0
 0.011116089206026282 -0.01618083828176768 0.046196762972305794 -0.8734611631023038 -0.024999999999999998 0.0 0.024999999999999998 0.0
1700000000.0 0.024999999999999998 0.0 -0.024999999999999998 0.0 -0.03404891472937067 -0.8699150791887709 0.009790310113543433 -0.017648859373897263
 -0.024999999999999998 0.0 0.024999999999999998 0.0 0.009790310113543433 -0.017648859373897263 -0.03404891472937067 -0.8699150791887709
 -0.03404891472937067 -0.8699150791887709 0.009790310113543433 -0.017648859373897263 0.024999999999999998 0.0 -0.024999999999999998 0.0
 0.009790310113543433 -0.017648859373897263 -0.03404891472937067 -0.8699150791887709 -0.024999999999999998 0.0 0.024999999999999998 0.0
1800000000.0 0.024999999999999998 0.0 -0.024999999999999998 0.0 -0.11321684143807983 -0.8591616205983406 0.00828172106453087 -0.018988207209327874
 -0.024999999999999998 0.0 0.024999999999999998 0.0 0.00828172106453087 -0.018988207209327874 -0.11321684143807983 -0.8591616205983406
 -0.11321684143807983 -0.8591616205983406 0.00828172106453087 -0.018988207209327874 0.024999999999999998 0.0 -0.024999999999999998 0.0
 0.00828172106453087 -0.018988207209327874 -0.11321684143807983 -0.8591616205983406 -0.024999999999999998 0.0 0.024999999999999998 0.0
1900000000.0 0.024999999999999998 0.0 -0.024999999999999998 0.0 -0.1906795017820474 -0.8413607133841591 0.006605354292508862 -0.020178731202476173
 -0.024999999999999998 0.0 0.024999999999999998 0.0 0.006605354292508862 -0.020178731202476173 -0.1906795017820474 -0.8413607133841591
 -0.1906795017820474 -0.8413607133841591 0.006605354292508862 -0.020178731202476173 0.024999999999999998 0.0 -0.024999999999999998 0.0
 0.006605354292508862 -0.020178731202476173 -0.1906795017820474 -0.8413607133841591 -0.024999999999999998 0.0 0.024999999999999998 0.0
2000000000.0 0.024999999999999998 0.0 -0.024999999999999998 0.0 -0.2658273232113057 -0.8167260643642402 0.004778078701572949 -0.021202029781427857
 -0.024999999999999998 0.0 0.024999999999999998 0.0 0.004778078701572949 -0.021202029781427857 -0.2658273232113057 -0.8167260643642402
 -0.2658273232113057 -0.8167260643642402 0.004778078701572949 -0.021202029781427857 0.024999999999999998 0.0 -0.024999999999999998 0.0
 0.004778078701572949 -0.021202029781427857 -0.2658273232113057 -0.8167260643642402 -0.024999999999999998 0.0 0.024999999999999998 0.0
2100000000.0 0.024999999999999998 0.0 -0.024999999999999998 0.0 -0.338073515393288 -0.7855233589807487 0.002818444198520285 -0.022041599263830328
 -0.024999999999999998 0.0 0.024999999999999998 0.0 0.002818444198520285 -0.022041599263830328 -0.338073515393288 -0.7855233589807487
 -0.338073515393288 -0.7855233589807487 0.002818444198520285 -0.022041599263830328 0.024999999999999998 0.0 -0.024999999999999998 0.0
 0.002818444198520285 -0.022041599263830328 -0.338073515393288 -0.7855233589807487 -0.024999999999999998 0.0 0.024999999999999998 0.0
2200000000.0 0.024999999999999998 0.0 -0.024999999999999998 0.0 -0.40685867980843293 -0.7480680023882955 0.0007465067276260095 -0.02268297203649246
 -0.024999999999999998 0.0 0.024999999999999998 0.0 0.0007465067276260095 -0.02268297203649246 -0.40685867980843293 -0.7480680023882955
 -0.40685867980843293 -0.7480680023882955 0.0007465067276260095 -0.02268297203649246 0.024999999999999998 0.0 -0.024999999999999998 0.0
 0.0007465067276260095 -0.02268297203649246 -0.40685867980843293 -0.7480680023882955 -0.024999999999999998 0.0 0.024999999999999998 0.0
2300000000.0 0.024999999999999998 0.0 -0.024999999999999998 0.0 -0.4716551594702493 -0.7047224363353887 -0.0014163634699014566 -0.02311384095919477
 -0.024999999999999998 0.0 0.024999999999999998 0.0 -0.0014163634699014566 -0.02311384095919477 -0.4716551594702493 -0.7047224363353887
 -0.4716551594702493 -0.7047224363353887 -0.0014163634699014566 -0.02311384095919477 0.024999999999999998 0.0 -0.024999999999999998 0.0
 -0.0014163634699014566 -0.02311384095919477 -0.4716551594702493 -0.7047224363353887 -0.024999999999999998 0.0 0.024999999999999998 0.0
2400000000.0 0.024999999999999998 0.0 -0.024999999999999998 0.0 -0.5319710991560322 -0.6558930643546724 -0.003647687963449156 -0.02332416752613402
 -0.024999999999999998 0.0 0.024999999999999998 0.0 -0.003647687963449156 -0.02332416752613402 -0.5319710991560322 -0.6558930643546724
 -0.5319710991560322 -0.6558930643546724 -0.003647687963449156 -0.02332416752613402 0.024999999999999998 0.0 -0.024999999999999998 0.0
 -0.003647687963449156 -0.02332416752613402 -0.5319710991560322 -0.6558930643546724 -0.024999999999999998 0.0 0.024999999999999998 0.0
2500000000.0 0.024999999999999998 0.0 -0.024999999999999998 0.0 -0.5873541878187125 -0.6020268184721168 -0.00592409824724986 -0.023306271806973523
 -0.024999999999999998 0.0 0.024999999999999998 0.0 -0.00592409824724986 -0.023306271806973523 -0.5873541878187125 -0.6020268184721168
 -0.5873541878187125 -0.6020268184721168 -0.00592409824724986 -0.023306271806973523 0.024999999999999998 0.0 -0.024999999999999998 0.0
 -0.00592409824724986 -0.023306271806973523 -0.5873541878187125 -0.6020268184721168 -0.024999999999999998 0.0 0.024999999999999998 0.0
2600000000.0 0.024999999999999998 0.0 -0.024999999999999998 0.0 -0.6373950567359807 -0.5436074017403763 -0.008221563513907605 -0.02305490259769494
 -0.024999999999999998 0.0 0.024999999999999998 0.0 -0.008221563513907605 -0.02305490259769494 -0.6373950567359807 -0.5436074017403763
 -0.6373950567359807 -0.5436074017403763 -0.008221563513907605 -0.02305490259769494 0.024999999999999998 0.0 -0.024999999999999998 0.0
 -0.008221563513907605 -0.02305490259769494 -0.6373950567359807 -0.5436074017403763 -0.024999999999999998 0.0 0.024999999999999998 0.0
2700000000.0 0.024999999999999998 0.0 -0.024999999999999998 0.0 -0.6817303092926263 -0.4811512421723545 -0.010515625736408771 -0.022567286566871986
 -0.024999999999999998 0.0 0.024999999999999998 0.0 -0.010515625736408771 -0.022567286566871986 -0.6817303092926263 -0.4811512421723545
 -0.6817303092926263 -0.4811512421723545 -0.010515625736408771 -0.022567286566871986 0.024999999999999998 0.0 -0.024999999999999998 0.0
 -0.010515625736408771 -0.022567286566871986 -0.6817303092926263 -0.4811512421723545 -0.024999999999999998 0.0 0.024999999999999998 0.0
2800000000.0 0.024999999999999998 0.0 -0.024999999999999998 0.0 -0.7200451609827492 -0.41520319494607905 -0.012781639700668888 -0.02184315550286637
 -0.024999999999999998 0.0 0.024999999999999998 0.0 -0.012781639700668888 -0.02184315550286637 -0.7200451609827492 -0.41520319494607905
 -0.7200451609827492 -0.41520319494607905 -0.012781639700668888 -0.02184315550286637 0.024999999999999998 0.0 -0.024999999999999998 0.0
 -0.012781639700668888 -0.02184315550286637 -0.7200451609827492 -0.41520319494607905 -0.024999999999999998 0.0 0.024999999999999998 0.0
2900000000.0 0.024999999999999998 0.0 -0.024999999999999998 0.0 -0.7520756711833838 -0.34633203096698545 -0.014995015627699747 -0.02088475106259396
 -0.024999999999999998 0.0 0.024999999999999998 0.0 -0.014995015627699747 -0.02088475106259396 -0.7520756711833838 -0.34633203096698545
 -0.7520756711833838 -0.34633203096698545 -0.014995015627699747 -0.02088475106259396 0.024999999999999998 0.0 -0.024999999999999998 0.0
 -0.014995015627699747 -0.02088475106259396 -0.7520756711833838 -0.34633203096698545 -0.024999999999999998 0.0 0.024999999999999998 0.0
3000000000.0 0.024999999999999998 0.0 -0.024999999999999998 0.0 -0.7776105514297657 -0.2751257509353538 -0.017131462031036625 -0.019696806699597457
 -0.024999999999999998 0.0 0.024999999999999998 0.0 -0.017131462031036625 -0.019696806699597457 -0.7776105514297657 -0.2751257509353538
 -0.7776105514297657 -0.2751257509353538 -0.017131462031036625 -0.019696806699597457 0.024999999999999998 0.0 -0.024999999999999998 0.0
 -0.017131462031036625 -0.019696806699597457 -0.7776105514297657 -0.2751257509353538 -0.024999999999999998 0.0 0.024999999999999998 0.0
3100000000.0 0.024999999999999998 0.0 -0.024999999999999998 0.0 -0.7964925382646874 -0.20218676492308918 -0.01916722647461667 -0.01828650671211743
 -0.024999999999999998 0.0 0.024999999999999998 0.0 -0.01916722647461667 -0.01828650671211743 -0.7964925382646874 -0.20218676492308918
 -0.7964925382646874 -0.20218676492308918 -0.01916722647461667 -0.01828650671211743 0.024999999999999998 0.0 -0.024999999999999998 0.0
 -0.01916722647461667 -0.01828650671211743 -0.7964925382646874 -0.20218676492308918 -0.024999999999999998 0.0 0.024999999999999998 0.0
3200000000.0 0.024999999999999998 0.0 -0.024999999999999998 0.0 -0.8086193221964091 -0.12812697807835657 -0.021079331931068753 -0.01666342260287298
 -0.024999999999999998 0.0 0.024999999999999998 0.0 -0.021079331931068753 -0.01666342260287298 -0.8086193221964091 -0.12812697807835657
 -0.8086193221964091 -0.12812697807835657 -0.021079331931068753 -0.01666342260287298 0.024999999999999998 0.0 -0.024999999999999998 0.0
 -0.021079331931068753 -0.01666342260287298 -0.8086193221964091 -0.12812697807835657 -0.024999999999999998 0.0 0.024999999999999998 0.0
3300000000.0 0.024999999999999998 0.0 -0.024999999999999998 0.0 -0.8139440278418325 -0.0535628234230279 -0.022845806491741758 -0.014839427182268054
 -0.024999999999999998 0.0 0.024999999999999998 0.0 -0.022845806491741758 -0.014839427182268054 -0.8139440278418325 -0.0535628234230279
 -0.8139440278418325 -0.0535628234230279 -0.022845806491741758 -0.014839427182268054 0.024999999999999998 0.0 -0.024999999999999998 0.0
 -0.022845806491741758 -0.014839427182268054 -0.8139440278418325 -0.0535628234230279 -0.024999999999999998 0.0 0.024999999999999998 0.0
3400000000.0 0.024999999999999998 0.0 -0.024999999999999998 0.0 -0.8124752439174535 0.02088971723090001 -0.024445904248430243 -0.012828587075920312
 -0.024999999999999998 0.0 0.024999999999999998 0.0 -0.024445904248430243 -0.012828587075920312 -0.8124752439174535 0.02088971723090001
 -0.8124752439174535 0.02088971723090001 -0.024445904248430243 -0.012828587075920312 0.024999999999999998 0.0 -0.024999999999999998 0.0
 -0.024445904248430243 -0.012828587075920312 -0.8124752439174535 0.02088971723090001 -0.024999999999999998 0.0 0.024999999999999998 0.0
3500000000.0 0.024999999999999998 0.0 -0.024999999999999998 0.0 -0.8042766053353888 0.09462006345455201 -0.025860315252894745 -0.010647034515375478
 -0.024999999999999998 0.0 0.024999999999999998 0.0 -0.025860315252894745 -0.010647034515375478 -0.8042766053353888 0.09462006345455201
 -0.8042766053353888 0.09462006345455201 -0.025860315252894745 -0.010647034515375478 0.024999999999999998 0.0 -0.024999999999999998 0.0
 -0.025860315252894745 -0.010647034515375478 -0.8042766053353888 0.09462006345455201 -0.024999999999999998 0.0 0.024999999999999998 0.0
3600000000.0 0.024999999999999998 0.0 -0.024999999999999998 0.0 -0.7894659332325592 0.16702791720964566 -0.0270713625636988 -0.008312819496929897
