! Created with skrf 1.12.0 (http://scikit-rf.org).
# Hz S RI R 50.0 
!freq ReS11 ImS11 ReS12 ImS12 ReS13 ImS13
! ReS14 ImS14
! ReS21 ImS21 ReS22 ImS22 ReS23 ImS23
! ReS24 ImS24
! ReS31 ImS31 ReS32 ImS32 ReS33 ImS33
! ReS34 ImS34
! ReS41 ImS41 ReS42 ImS42 ReS43 ImS43
! ReS44 ImS44
!
0.0 0.0 0.0 0.0 0.0 0.9999999999999998 0.0 2.2371143170757382e-17 0.0
 0.0 0.0 0.0 0.0 2.2371143170757382e-17 0.0 0.9999999999999998 0.0
 0.9999999999999998 0.0 2.2371143170757382e-17 0.0 0.0 0.0 0.0 0.0
 2.2371143170757382e-17 0.0 0.9999999999999998 0.0 0.0 0.0 0.0 0.0
100000000.0 0.024999999999999998 0.0 -0.024999999999999998 0.0 0.9461082162924195 -0.1220562431757684 0.022468279240148298 0.014111414256680513
 -0.024999999999999998 0.0 0.024999999999999998 0.0 0.022468279240148298 0.014111414256680513 0.9461082162924195 -0.1220562431757684
 0.9461082162924195 -0.1220562431757684 0.022468279240148298 0.014111414256680513 0.024999999999999998 0.0 -0.024999999999999998 0.0
 0.022468279240148298 0.014111414256680513 0.9461082162924195 -0.1220562431757684 -0.024999999999999998 0.0 0.024999999999999998 0.0
200000000.0 0.024999999999999998 0.0 -0.024999999999999998 0.0 0.9096306862665471 -0.21453444772440233 0.033204455925423704 0.01521257028188735
 -0.024999999999999998 0.0 0.024999999999999998 0.0 0.033204455925423704 0.01521257028188735 0.9096306862665471 -0.21453444772440233
 0.9096306862665471 -0.21453444772440233 0.033204455925423704 0.01521257028188735 0.024999999999999998 0.0 -0.024999999999999998 0.0
 0.033204455925423704 0.01521257028188735 0.9096306862665471 -0.21453444772440233 -0.024999999999999998 0.0 0.024999999999999998 0.0
300000000.0 0.024999999999999998 0.0 -0.024999999999999998 0.0 0.8696831770916886 -0.29901975102201434 0.04179841125830869 0.013434768919985594
 -0.024999999999999998 0.0 0.024999999999999998 0.0 0.04179841125830869 0.013434768919985594 0.8696831770916886 -0.29901975102201434
 0.8696831770916886 -0.29901975102201434 0.04179841125830869 0.013434768919985594 0.024999999999999998 0.0 -0.024999999999999998 0.0
 0.04179841125830869 0.013434768919985594 0.8696831770916886 -0.29901975102201434 -0.024999999999999998 0.0 0.024999999999999998 0.0
400000000.0 0.024999999999999998 0.0 -0.024999999999999998 0.0 0.8248901342719344 -0.37715750332528425 0.04897468538282011 0.009853483824541383
 -0.024999999999999998 0.0 0.024999999999999998 0.0 0.04897468538282011 0.009853483824541383 0.8248901342719344 -0.37715750332528425
 0.8248901342719344 -0.37715750332528425 0.04897468538282011 0.009853483824541383 0.024999999999999998 0.0 -0.024999999999999998 0.0
 0.04897468538282011 0.009853483824541383 0.8248901342719344 -0.37715750332528425 -0.024999999999999998 0.0 0.024999999999999998 0.0
500000000.0 0.024999999999999998 0.0 -0.024999999999999998 0.0 0.7750559588207605 -0.4493088363800255 0.054945189500376974 0.004952895277092771
 -0.024999999999999998 0.0 0.024999999999999998 0.0 0.054945189500376974 0.004952895277092771 0.7750559588207605 -0.4493088363800255
 0.7750559588207605 -0.4493088363800255 0.054945189500376974 0.004952895277092771 0.024999999999999998 0.0 -0.024999999999999998 0.0
 0.054945189500376974 0.004952895277092771 0.7750559588207605 -0.4493088363800255 -0.024999999999999998 0.0 0.024999999999999998 0.0
600000000.0 0.024999999999999998 0.0 -0.024999999999999998 0.0 0.7203525270769353 -0.5154608770316843 0.059780870116783145 -0.0009644596578071828
 -0.024999999999999998 0.0 0.024999999999999998 0.0 0.059780870116783145 -0.0009644596578071828 0.7203525270769353 -0.5154608770316843
 0.7203525270769353 -0.5154608770316843 0.059780870116783145 -0.0009644596578071828 0.024999999999999998 0.0 -0.024999999999999998 0.0
 0.059780870116783145 -0.0009644596578071828 0.7203525270769353 -0.5154608770316843 -0.024999999999999998 0.0 0.024999999999999998 0.0
700000000.0 0.024999999999999998 0.0 -0.024999999999999998 0.0 0.6611187484662695 -0.5754648326049114 0.0635027141983178 -0.007672384922537627
 -0.024999999999999998 0.0 0.024999999999999998 0.0 0.0635027141983178 -0.007672384922537627 0.6611187484662695 -0.5754648326049114
 0.6611187484662695 -0.5754648326049114 0.0635027141983178 -0.007672384922537627 0.024999999999999998 0.0 -0.024999999999999998 0.0
 0.0635027141983178 -0.007672384922537627 0.6611187484662695 -0.5754648326049114 -0.024999999999999998 0.0 0.024999999999999998 0.0
800000000.0 0.024999999999999998 0.0 -0.024999999999999998 0.0 0.5977878293398446 -0.6291259273525698 0.0661138433286682 -0.014982675686689323
 -0.024999999999999998 0.0 0.024999999999999998 0.0 0.0661138433286682 -0.014982675686689323 0.5977878293398446 -0.6291259273525698
 0.5977878293398446 -0.6291259273525698 0.0661138433286682 -0.014982675686689323 0.024999999999999998 0.0 -0.024999999999999998 0.0
 0.0661138433286682 -0.014982675686689323 0.5977878293398446 -0.6291259273525698 -0.024999999999999998 0.0 0.024999999999999998 0.0
900000000.0 0.024999999999999998 0.0 -0.024999999999999998 0.0 0.5308537425366944 -0.6762451588805234 0.06761333050098352 -0.022728435839462036
 -0.024999999999999998 0.0 0.024999999999999998 0.0 0.06761333050098352 -0.022728435839462036 0.5308537425366944 -0.6762451588805234
 0.5308537425366944 -0.6762451588805234 0.06761333050098352 -0.022728435839462036 0.024999999999999998 0.0 -0.024999999999999998 0.0
 0.06761333050098352 -0.022728435839462036 0.5308537425366944 -0.6762451588805234 -0.024999999999999998 0.0 0.024999999999999998 0.0
1000000000.0 0.024999999999999998 0.0 -0.024999999999999998 0.0 0.46085258619264996 -0.7166414923975247 0.06800294122227685 -0.030756089386857872
 -0.024999999999999998 0.0 0.024999999999999998 0.0 0.06800294122227685 -0.030756089386857872 0.46085258619264996 -0.7166414923975247
 0.46085258619264996 -0.7166414923975247 0.06800294122227685 -0.030756089386857872 0.024999999999999998 0.0 -0.024999999999999998 0.0
 0.06800294122227685 -0.030756089386857872 0.46085258619264996 -0.7166414923975247 -0.024999999999999998 0.0 0.024999999999999998 0.0
1100000000.0 0.024999999999999998 0.0 -0.024999999999999998 0.0 0.3883504370993409 -0.7501647920652444 0.06729068592276582 -0.03892140677579787
 -0.024999999999999998 0.0 0.024999999999999998 0.0 0.06729068592276582 -0.03892140677579787 0.3883504370993409 -0.7501647920652444
 0.3883504370993409 -0.7501647920652444 0.06729068592276582 -0.03892140677579787 0.024999999999999998 0.0 -0.024999999999999998 0.0
 0.06729068592276582 -0.03892140677579787 0.3883504370993409 -0.7501647920652444 -0.024999999999999998 0.0 0.024999999999999998 0.0
1200000000.0 0.024999999999999998 0.0 -0.024999999999999998 0.0 0.31393433473879867 -0.7767038056653703 0.06549275586410142 -0.04708757691330825
 -0.024999999999999998 0.0 0.024999999999999998 0.0 0.06549275586410142 -0.04708757691330825 0.31393433473879867 -0.7767038056653703
 0.31393433473879867 -0.7767038056653703 0.06549275586410142 -0.04708757691330825 0.024999999999999998 0.0 -0.024999999999999998 0.0
 0.06549275586410142 -0.04708757691330825 0.31393433473879867 -0.7767038056653703 -0.024999999999999998 0.0 0.024999999999999998 0.0
1300000000.0 0.024999999999999998 0.0 -0.024999999999999998 0.0 0.23820490166210773 -0.7961912227854083 0.06263455362153024 -0.0551243965570386
 -0.024999999999999998 0.0 0.024999999999999998 0.0 0.06263455362153024 -0.0551243965570386 0.23820490166210773 -0.7961912227854083
 0.23820490166210773 -0.7961912227854083 0.06263455362153024 -0.0551243965570386 0.024999999999999998 0.0 -0.024999999999999998 0.0
 0.06263455362153024 -0.0551243965570386 0.23820490166210773 -0.7961912227854083 -0.024999999999999998 0.0 0.024999999999999998 0.0
1400000000.0 0.024999999999999998 0.0 -0.024999999999999998 0.0 0.16176988766443368 -0.8086068363820246 0.05875116902550575 -0.06290809880154694
 -0.024999999999999998 0.0 0.024999999999999998 0.0 0.05875116902550575 -0.06290809880154694 0.16176988766443368 -0.8086068363820246
 0.16176988766443368 -0.8086068363820246 0.05875116902550575 -0.06290809880154694 0.024999999999999998 0.0 -0.024999999999999998 0.0
 0.05875116902550575 -0.06290809880154694 0.16176988766443368 -0.8086068363820246 -0.024999999999999998 0.0 0.024999999999999998 0.0
1500000000.0 0.024999999999999998 0.0 -0.024999999999999998 0.0 0.08523828293792646 -0.8139793708379762 0.05388748676370331 -0.07032155553850306
 -0.024999999999999998 0.0 0.024999999999999998 0.0 0.05388748676370331 -0.07032155553850306 0.08523828293792646 -0.8139793708379762
 0.08523828293792646 -0.8139793708379762 0.05388748676370331 -0.07032155553850306 0.024999999999999998 0.0 -0.024999999999999998 0.0
 0.05388748676370331 -0.07032155553850306 0.08523828293792646 -0.8139793708379762 -0.024999999999999998 0.0 0.024999999999999998 0.0
1600000000.0 0.024999999999999998 0.0 -0.024999999999999998 0.0 0.009214821036857921 -0.8123873039903103 0.04809803114147416 -0.07725469739376116
 -0.024999999999999998 0.0 0.024999999999999998 0.0 0.04809803114147416 -0.07725469739376116 0.009214821036857921 -0.8123873039903103
 0.009214821036857921 -0.8123873039903103 0.04809803114147416 -0.07725469739376116 0.024999999999999998 0.0 -0.024999999999999998 0.0
 0.04809803114147416 -0.07725469739376116 0.009214821036857921 -0.8123873039903103 -0.024999999999999998 0.0 0.024999999999999998 0.0
1700000000.0 0.024999999999999998 0.0 -0.024999999999999998 0.0 -0.06570521634812257 -0.8039588850759595 0.04144661173229533 -0.08360505348670866
 -0.024999999999999998 0.0 0.024999999999999998 0.0 0.04144661173229533 -0.08360505348670866 -0.06570521634812257 -0.8039588850759595
 -0.06570521634812257 -0.8039588850759595 0.04144661173229533 -0.08360505348670866 0.024999999999999998 0.0 -0.024999999999999998 0.0
 0.04144661173229533 -0.08360505348670866 -0.06570521634812257 -0.8039588850759595 -0.024999999999999998 0.0 0.024999999999999998 0.0
1800000000.0 0.024999999999999998 0.0 -0.024999999999999998 0.0 -0.13894093146445663 -0.7888714808407987 0.03400581109090765 -0.0892783469668697
 -0.024999999999999998 0.0 0.024999999999999998 0.0 0.03400581109090765 -0.0892783469668697 -0.13894093146445663 -0.7888714808407987
 -0.13894093146445663 -0.7888714808407987 0.03400581109090765 -0.0892783469668697 0.024999999999999998 0.0 -0.024999999999999998 0.0
 0.03400581109090765 -0.0892783469668697 -0.13894093146445663 -0.7888714808407987 -0.024999999999999998 0.0 0.024999999999999998 0.0
1900000000.0 0.024999999999999998 0.0 -0.024999999999999998 0.0 -0.20993049060309502 -0.7673503421624648 0.025856343113556477 -0.09418910242417051
 -0.024999999999999998 0.0 0.024999999999999998 0.0 0.025856343113556477 -0.09418910242417051 -0.20993049060309502 -0.7673503421624648
 -0.20993049060309502 -0.7673503421624648 0.025856343113556477 -0.09418910242417051 0.024999999999999998 0.0 -0.024999999999999998 0.0
 0.025856343113556477 -0.09418910242417051 -0.20993049060309502 -0.7673503421624648 -0.024999999999999998 0.0 0.024999999999999998 0.0
2000000000.0 0.024999999999999998 0.0 -0.024999999999999998 0.0 -0.2781355479474198 -0.73966686024267 0.017086303437687043 -0.09826123390299805
 -0.024999999999999998 0.0 0.024999999999999998 0.0 0.017086303437687043 -0.09826123390299805 -0.2781355479474198 -0.73966686024267
 -0.2781355479474198 -0.73966686024267 0.017086303437687043 -0.09826123390299805 0.024999999999999998 0.0 -0.024999999999999998 0.0
 0.017086303437687043 -0.09826123390299805 -0.2781355479474198 -0.73966686024267 -0.024999999999999998 0.0 0.024999999999999998 0.0
2100000000.0 0.024999999999999998 0.0 -0.024999999999999998 0.0 -0.3430454002955297 -0.706136367702872 0.007790329100761965 -0.10142859054170696
 -0.024999999999999998 0.0 0.024999999999999998 0.0 0.007790329100761965 -0.10142859054170696 -0.3430454002955297 -0.706136367702872
 -0.3430454002955297 -0.706136367702872 0.007790329100761965 -0.10142859054170696 0.024999999999999998 0.0 -0.024999999999999998 0.0
 0.007790329100761965 -0.10142859054170696 -0.3430454002955297 -0.706136367702872 -0.024999999999999998 0.0 0.024999999999999998 0.0
2200000000.0 0.024999999999999998 0.0 -0.024999999999999998 0.0 -0.4041808553178639 -0.6671155318659656 -0.0019313177629429878 -0.10363544255882236
 -0.024999999999999998 0.0 0.024999999999999998 0.0 -0.0019313177629429878 -0.10363544255882236 -0.4041808553178639 -0.6671155318659656
 -0.4041808553178639 -0.6671155318659656 -0.0019313177629429878 -0.10363544255882236 0.024999999999999998 0.0 -0.024999999999999998 0.0
 -0.0019313177629429878 -0.10363544255882236 -0.4041808553178639 -0.6671155318659656 -0.024999999999999998 0.0 0.024999999999999998 0.0
2300000000.0 0.024999999999999998 0.0 -0.024999999999999998 0.0 -0.4610977940990089 -0.6229993828780798 -0.011973728841141786 -0.10483689441650368
 -0.024999999999999998 0.0 0.024999999999999998 0.0 -0.011973728841141786 -0.10483689441650368 -0.4610977940990089 -0.6229993828780798
 -0.4610977940990089 -0.6229993828780798 -0.011973728841141786 -0.10483689441650368 0.024999999999999998 0.0 -0.024999999999999998 0.0
 -0.011973728841141786 -0.10483689441650368 -0.4610977940990089 -0.6229993828780798 -0.024999999999999998 0.0 0.024999999999999998 0.0
2400000000.0 0.024999999999999998 0.0 -0.024999999999999998 0.0 -0.5133904084440049 -0.5742180167796775 -0.022228378675476494 -0.10499921510112893
 -0.024999999999999998 0.0 0.024999999999999998 0.0 -0.022228378675476494 -0.10499921510112893 -0.5133904084440049 -0.5742180167796775
 -0.5133904084440049 -0.5742180167796775 -0.022228378675476494 -0.10499921510112893 0.024999999999999998 0.0 -0.024999999999999998 0.0
 -0.022228378675476494 -0.10499921510112893 -0.5133904084440049 -0.5742180167796775 -0.024999999999999998 0.0 0.024999999999999998 0.0
2500000000.0 0.024999999999999998 0.0 -0.024999999999999998 0.0 -0.5606940942555525 -0.5212330123525203 -0.03258419181040993 -0.10410007792656999
 -0.024999999999999998 0.0 0.024999999999999998 0.0 -0.03258419181040993 -0.10410007792656999 -0.5606940942555525 -0.5212330123525203
 -0.5606940942555525 -0.5212330123525203 -0.03258419181040993 -0.10410007792656999 0.024999999999999998 0.0 -0.024999999999999998 0.0
 -0.03258419181040993 -0.10410007792656999 -0.5606940942555525 -0.5212330123525203 -0.024999999999999998 0.0 0.024999999999999998 0.0
2600000000.0 0.024999999999999998 0.0 -0.024999999999999998 0.0 -0.6026879838647641 -0.46453360003079724 -0.042928636385124265 -0.10212870430727394
 -0.024999999999999998 0.0 0.024999999999999998 0.0 -0.042928636385124265 -0.10212870430727394 -0.6026879838647641 -0.46453360003079724
 -0.6026879838647641 -0.46453360003079724 -0.042928636385124265 -0.10212870430727394 0.024999999999999998 0.0 -0.024999999999999998 0.0
 -0.042928636385124265 -0.10212870430727394 -0.6026879838647641 -0.46453360003079724 -0.024999999999999998 0.0 0.024999999999999998 0.0
2700000000.0 0.024999999999999998 0.0 -0.024999999999999998 0.0 -0.6390971023003339 -0.40463262103649716 -0.05314883272870128 -0.09908590770272929
 -0.024999999999999998 0.0 0.024999999999999998 0.0 -0.05314883272870128 -0.09908590770272929 -0.6390971023003339 -0.40463262103649716
 -0.6390971023003339 -0.40463262103649716 -0.05314883272870128 -0.09908590770272929 0.024999999999999998 0.0 -0.024999999999999998 0.0
 -0.05314883272870128 -0.09908590770272929 -0.6390971023003339 -0.40463262103649716 -0.024999999999999998 0.0 0.024999999999999998 0.0
2800000000.0 0.024999999999999998 0.0 -0.024999999999999998 0.0 -0.6696941349572207 -0.34206231496041617 -0.06313266572619733 -0.09498403548852927
 -0.024999999999999998 0.0 0.024999999999999998 0.0 -0.06313266572619733 -0.09498403548852927 -0.6696941349572207 -0.34206231496041617
 -0.6696941349572207 -0.34206231496041617 -0.06313266572619733 -0.09498403548852927 0.024999999999999998 0.0 -0.024999999999999998 0.0
 -0.06313266572619733 -0.09498403548852927 -0.6696941349572207 -0.34206231496041617 -0.024999999999999998 0.0 0.024999999999999998 0.0
2900000000.0 0.024999999999999998 0.0 -0.024999999999999998 0.0 -0.6943007968682556 -0.2773699741131614 -0.07276988994282786 -0.08984680791641801
 -0.024999999999999998 0.0 0.024999999999999998 0.0 -0.07276988994282786 -0.08984680791641801 -0.6943007968682556 -0.2773699741131614
 -0.6943007968682556 -0.2773699741131614 -0.07276988994282786 -0.08984680791641801 0.024999999999999998 0.0 -0.024999999999999998 0.0
 -0.07276988994282786 -0.08984680791641801 -0.6943007968682556 -0.2773699741131614 -0.024999999999999998 0.0 0.024999999999999998 0.0
3000000000.0 0.024999999999999998 0.0 -0.024999999999999998 0.0 -0.712788796710277 -0.2111135030146803 -0.08195321675052532 -0.08370905462027098
 -0.024999999999999998 0.0 0.024999999999999998 0.0 -0.08195321675052532 -0.08370905462027098 -0.712788796710277 -0.2111135030146803
 -0.712788796710277 -0.2111135030146803 -0.08195321675052532 -0.08370905462027098 0.024999999999999998 0.0 -0.024999999999999998 0.0
 -0.08195321675052532 -0.08370905462027098 -0.712788796710277 -0.2111135030146803 -0.024999999999999998 0.0 0.024999999999999998 0.0
3100000000.0 0.024999999999999998 0.0 -0.024999999999999998 0.0 -0.7250803917278578 -0.14385692130766847 -0.09057937301144627 -0.07661635032753814
 -0.024999999999999998 0.0 0.024999999999999998 0.0 -0.09057937301144627 -0.07661635032753814 -0.7250803917278578 -0.14385692130766847
 -0.7250803917278578 -0.14385692130766847 -0.09057937301144627 -0.07661635032753814 0.024999999999999998 0.0 -0.024999999999999998 0.0
 -0.09057937301144627 -0.07661635032753814 -0.7250803917278578 -0.14385692130766847 -0.024999999999999998 0.0 0.024999999999999998 0.0
3200000000.0 0.024999999999999998 0.0 -0.024999999999999998 0.0 -0.7311485328813395 -0.07616584812316497 -0.09855012124613838 -0.06862455255806459
 -0.024999999999999998 0.0 0.024999999999999998 0.0 -0.09855012124613838 -0.06862455255806459 -0.7311485328813395 -0.07616584812316497
 -0.7311485328813395 -0.07616584812316497 -0.09855012124613838 -0.06862455255806459 0.024999999999999998 0.0 -0.024999999999999998 0.0
 -0.09855012124613838 -0.06862455255806459 -0.7311485328813395 -0.07616584812316497 -0.024999999999999998 0.0 0.024999999999999998 0.0
3300000000.0 0.024999999999999998 0.0 -0.024999999999999998 0.0 -0.7310166026784445 -0.008603005464774178 -0.10577323165512983 -0.059799245140521776
 -0.024999999999999998 0.0 0.024999999999999998 0.0 -0.10577323165512983 -0.059799245140521776 -0.7310166026784445 -0.008603005464774178
 -0.7310166026784445 -0.008603005464774178 -0.10577323165512983 -0.059799245140521776 0.024999999999999998 0.0 -0.024999999999999998 0.0
 -0.10577323165512983 -0.059799245140521776 -0.7310166026784445 -0.008603005464774178 -0.024999999999999998 0.0 0.024999999999999998 0.0
3400000000.0 0.024999999999999998 0.0 -0.024999999999999998 0.0 -0.7247577512923152 0.058276222508124 -0.11216339687356847 -0.0502150923531443
 -0.024999999999999998 0.0 0.024999999999999998 0.0 -0.11216339687356847 -0.0502150923531443 -0.7247577512923152 0.058276222508124
 -0.7247577512923152 0.058276222508124 -0.11216339687356847 -0.0502150923531443 0.024999999999999998 0.0 -0.024999999999999998 0.0
 -0.11216339687356847 -0.0502150923531443 -0.7247577512923152 0.058276222508124 -0.024999999999999998 0.0 0.024999999999999998 0.0
3500000000.0 0.024999999999999998 0.0 -0.024999999999999998 0.0 -0.7124938396695334 0.1239281383390897 -0.1176430809187501 -0.03995510939991317
 -0.024999999999999998 0.0 0.024999999999999998 0.0 -0.1176430809187501 -0.03995510939991317 -0.7124938396695334 0.1239281383390897
 -0.7124938396695334 0.1239281383390897 -0.1176430809187501 -0.03995510939991317 0.024999999999999998 0.0 -0.024999999999999998 0.0
 -0.1176430809187501 -0.03995510939991317 -0.7124938396695334 0.1239281383390897 -0.024999999999999998 0.0 0.024999999999999998 0.0
3600000000.0 0.024999999999999998 0.0 -0.024999999999999998 0.0 -0.6943940013586598 0.18782495347667744 -0.12214329443759825 -0.029109855763961676
 -0.024999999999999998 0.0 0.024999999999999998 0.0 -0.12214329443759825 -0.029109855763961676 -0.6943940013586598 0.18782495347667744
