! Created with skrf 1.12.0 (http://scikit-rf.org).
# Hz S RI R 50.0 
!freq ReS11 ImS11 ReS12 ImS12 ReS13 ImS13
! ReS14 ImS14
! ReS21 ImS21 ReS22 ImS22 ReS23 ImS23
! ReS24 ImS24
! ReS31 ImS31 ReS32 ImS32 ReS33 ImS33
! ReS34 ImS34
! ReS41 ImS41 ReS42 ImS42 ReS43 ImS43
! ReS44 ImS44
!
0.0 0.0 0.0 0.0 0.0 0.9999999999999998 0.0 2.2371143170757382e-17 0.0
 0.0 0.0 0.0 0.0 2.2371143170757382e-17 0.0 0.9999999999999998 0.0
 0.9999999999999998 0.0 2.2371143170757382e-17 0.0 0.0 0.0 0.0 0.0
 2.2371143170757382e-17 0.0 0.9999999999999998 0.0 0.0 0.0 0.0 0.0
100000000.0 0.024999999999999998 0.0 -0.024999999999999998 0.0 0.9527996401220503 -0.1179693544080427 0.015776855410517515 0.010024525488954814
 -0.024999999999999998 0.0 0.024999999999999998 0.0 0.015776855410517515 0.010024525488954814 0.9527996401220503 -0.1179693544080427
 0.9527996401220503 -0.1179693544080427 0.015776855410517515 0.010024525488954814 0.024999999999999998 0.0 -0.024999999999999998 0.0
 0.015776855410517515 0.010024525488954814 0.9527996401220503 -0.1179693544080427 -0.024999999999999998 0.0 0.024999999999999998 0.0
200000000.0 0.024999999999999998 0.0 -0.024999999999999998 0.0 0.9194534275477749 -0.21023509179322758 0.023381714644195858 0.010913214350712597
 -0.024999999999999998 0.0 0.024999999999999998 0.0 0.023381714644195858 0.010913214350712597 0.9194534275477749 -0.21023509179322758
 0.9194534275477749 -0.21023509179322758 0.023381714644195858 0.010913214350712597 0.024999999999999998 0.0 -0.024999999999999998 0.0
 0.023381714644195858 0.010913214350712597 0.9194534275477749 -0.21023509179322758 -0.024999999999999998 0.0 0.024999999999999998 0.0
300000000.0 0.024999999999999998 0.0 -0.024999999999999998 0.0 0.8819678835490478 -0.2953455629843826 0.029513704800949614 0.00976058088235384
 -0.024999999999999998 0.0 0.024999999999999998 0.0 0.029513704800949614 0.00976058088235384 0.8819678835490478 -0.2953455629843826
 0.8819678835490478 -0.2953455629843826 0.029513704800949614 0.00976058088235384 0.024999999999999998 0.0 -0.024999999999999998 0.0
 0.029513704800949614 0.00976058088235384 0.8819678835490478 -0.2953455629843826 -0.024999999999999998 0.0 0.024999999999999998 0.0
400000000.0 0.024999999999999998 0.0 -0.024999999999999998 0.0 0.8391915823319945 -0.37462243128322426 0.034673237322759884 0.007318411782481389
 -0.024999999999999998 0.0 0.024999999999999998 0.0 0.034673237322759884 0.007318411782481389 0.8391915823319945 -0.37462243128322426
 0.8391915823319945 -0.37462243128322426 0.034673237322759884 0.007318411782481389 0.024999999999999998 0.0 -0.024999999999999998 0.0
 0.034673237322759884 0.007318411782481389 0.8391915823319945 -0.37462243128322426 -0.024999999999999998 0.0 0.024999999999999998 0.0
500000000.0 0.024999999999999998 0.0 -0.024999999999999998 0.0 0.7909979390958952 -0.4482803634849635 0.03900320922524226 0.003924422382030772
 -0.024999999999999998 0.0 0.024999999999999998 0.0 0.03900320922524226 0.003924422382030772 0.7909979390958952 -0.4482803634849635
 0.7909979390958952 -0.4482803634849635 0.03900320922524226 0.003924422382030772 0.024999999999999998 0.0 -0.024999999999999998 0.0
 0.03900320922524226 0.003924422382030772 0.7909979390958952 -0.4482803634849635 -0.024999999999999998 0.0 0.024999999999999998 0.0
600000000.0 0.024999999999999998 0.0 -0.024999999999999998 0.0 0.7375850570781167 -0.516214785744653 0.04254834011560179 -0.00021055094483847343
 -0.024999999999999998 0.0 0.024999999999999998 0.0 0.04254834011560179 -0.00021055094483847343 0.7375850570781167 -0.516214785744653
 0.7375850570781167 -0.516214785744653 0.04254834011560179 -0.00021055094483847343 0.024999999999999998 0.0 -0.024999999999999998 0.0
 0.04254834011560179 -0.00021055094483847343 0.7375850570781167 -0.516214785744653 -0.024999999999999998 0.0 0.024999999999999998 0.0
700000000.0 0.024999999999999998 0.0 -0.024999999999999998 0.0 0.679302835521923 -0.5782085091884838 0.0453186271426643 -0.004928708338965297
 -0.024999999999999998 0.0 0.024999999999999998 0.0 0.0453186271426643 -0.004928708338965297 0.679302835521923 -0.5782085091884838
 0.679302835521923 -0.5782085091884838 0.0453186271426643 -0.004928708338965297 0.024999999999999998 0.0 -0.024999999999999998 0.0
 0.0453186271426643 -0.004928708338965297 0.679302835521923 -0.5782085091884838 -0.024999999999999998 0.0 0.024999999999999998 0.0
800000000.0 0.024999999999999998 0.0 -0.024999999999999998 0.0 0.616589942646865 -0.6340102104324175 0.04731173002164789 -0.01009839260684165
 -0.024999999999999998 0.0 0.024999999999999998 0.0 0.04731173002164789 -0.01009839260684165 0.616589942646865 -0.6340102104324175
 0.616589942646865 -0.6340102104324175 0.04731173002164789 -0.01009839260684165 0.024999999999999998 0.0 -0.024999999999999998 0.0
 0.04731173002164789 -0.01009839260684165 0.616589942646865 -0.6340102104324175 -0.024999999999999998 0.0 0.024999999999999998 0.0
900000000.0 0.024999999999999998 0.0 -0.024999999999999998 0.0 0.5499444462461529 -0.6833712005732666 0.04852262679152504 -0.015602394146718811
 -0.024999999999999998 0.0 0.024999999999999998 0.0 0.04852262679152504 -0.015602394146718811 0.5499444462461529 -0.6833712005732666
 0.5499444462461529 -0.6833712005732666 0.04852262679152504 -0.015602394146718811 0.024999999999999998 0.0 -0.024999999999999998 0.0
 0.04852262679152504 -0.015602394146718811 0.5499444462461529 -0.6833712005732666 -0.024999999999999998 0.0 0.024999999999999998 0.0
1000000000.0 0.024999999999999998 0.0 -0.024999999999999998 0.0 0.47990718157689777 -0.726065224062024 0.048948345838029074 -0.021332357722358593
 -0.024999999999999998 0.0 0.024999999999999998 0.0 0.048948345838029074 -0.021332357722358593 0.47990718157689777 -0.726065224062024
 0.47990718157689777 -0.726065224062024 0.048948345838029074 -0.021332357722358593 0.024999999999999998 0.0 -0.024999999999999998 0.0
 0.048948345838029074 -0.021332357722358593 0.47990718157689777 -0.726065224062024 -0.024999999999999998 0.0 0.024999999999999998 0.0
1100000000.0 0.024999999999999998 0.0 -0.024999999999999998 0.0 0.407050643005828 -0.7619001889268234 0.04859048001627875 -0.027186009914218826
 -0.024999999999999998 0.0 0.024999999999999998 0.0 0.04859048001627875 -0.027186009914218826 0.407050643005828 -0.7619001889268234
 0.407050643005828 -0.7619001889268234 0.04859048001627875 -0.027186009914218826 0.024999999999999998 0.0 -0.024999999999999998 0.0
 0.04859048001627875 -0.027186009914218826 0.407050643005828 -0.7619001889268234 -0.024999999999999998 0.0 0.024999999999999998 0.0
1200000000.0 0.024999999999999998 0.0 -0.024999999999999998 0.0 0.3319705145476013 -0.7907255563901953 0.04745657605529881 -0.03306582618848338
 -0.024999999999999998 0.0 0.024999999999999998 0.0 0.04745657605529881 -0.03306582618848338 0.3319705145476013 -0.7907255563901953
 0.3319705145476013 -0.7907255563901953 0.04745657605529881 -0.03306582618848338 0.024999999999999998 0.0 -0.024999999999999998 0.0
 0.04745657605529881 -0.03306582618848338 0.3319705145476013 -0.7907255563901953 -0.024999999999999998 0.0 0.024999999999999998 0.0
1300000000.0 0.024999999999999998 0.0 -0.024999999999999998 0.0 0.2552785623209239 -0.8124371329229643 0.04556089296271411 -0.03887848641948266
 -0.024999999999999998 0.0 0.024999999999999998 0.0 0.04556089296271411 -0.03887848641948266 0.2552785623209239 -0.8124371329229643
 0.2552785623209239 -0.8124371329229643 0.04556089296271411 -0.03887848641948266 0.024999999999999998 0.0 -0.024999999999999998 0.0
 0.04556089296271411 -0.03887848641948266 0.2552785623209239 -0.8124371329229643 -0.024999999999999998 0.0 0.024999999999999998 0.0
1400000000.0 0.024999999999999998 0.0 -0.024999999999999998 0.0 0.17759628408431738 -0.826980151932348 0.042924772605622045 -0.04453478325122353
 -0.024999999999999998 0.0 0.024999999999999998 0.0 0.042924772605622045 -0.04453478325122353 0.17759628408431738 -0.826980151932348
 0.17759628408431738 -0.826980151932348 0.042924772605622045 -0.04453478325122353 0.024999999999999998 0.0 -0.024999999999999998 0.0
 0.042924772605622045 -0.04453478325122353 0.17759628408431738 -0.826980151932348 -0.024999999999999998 0.0 0.024999999999999998 0.0
1500000000.0 0.024999999999999998 0.0 -0.024999999999999998 0.0 0.09954901850410607 -0.8343511292700387 0.039576751197523706 -0.049949797106440604
 -0.024999999999999998 0.0 0.024999999999999998 0.0 0.039576751197523706 -0.049949797106440604 0.09954901850410607 -0.8343511292700387
 0.09954901850410607 -0.8343511292700387 0.039576751197523706 -0.049949797106440604 0.024999999999999998 0.0 -0.024999999999999998 0.0
 0.039576751197523706 -0.049949797106440604 0.09954901850410607 -0.8343511292700387 -0.024999999999999998 0.0 0.024999999999999998 0.0
1600000000.0 0.024999999999999998 0.0 -0.024999999999999998 0.0 0.02176036777576598 -0.8345987736113493 0.035552484402566094 -0.05504322777272229
 -0.024999999999999998 0.0 0.024999999999999998 0.0 0.035552484402566094 -0.05504322777272229 0.02176036777576598 -0.8345987736113493
 0.02176036777576598 -0.8345987736113493 0.035552484402566094 -0.05504322777272229 0.024999999999999998 0.0 -0.024999999999999998 0.0
 0.035552484402566094 -0.05504322777272229 0.02176036777576598 -0.8345987736113493 -0.024999999999999998 0.0 0.024999999999999998 0.0
1700000000.0 0.024999999999999998 0.0 -0.024999999999999998 0.0 -0.05515313443922635 -0.827824124853593 0.03089452982339911 -0.05973981370907505
 -0.024999999999999998 0.0 0.024999999999999998 0.0 0.03089452982339911 -0.05973981370907505 -0.05515313443922635 -0.827824124853593
 -0.05515313443922635 -0.827824124853593 0.03089452982339911 -0.05973981370907505 0.024999999999999998 0.0 -0.024999999999999998 0.0
 0.03089452982339911 -0.05973981370907505 -0.05515313443922635 -0.827824124853593 -0.024999999999999998 0.0 0.024999999999999998 0.0
1800000000.0 0.024999999999999998 0.0 -0.024999999999999998 0.0 -0.13058713541633385 -0.8141800340678785 0.02565201504278487 -0.06396979373978989
 -0.024999999999999998 0.0 0.024999999999999998 0.0 0.02565201504278487 -0.06396979373978989 -0.13058713541633385 -0.8141800340678785
 -0.13058713541633385 -0.8141800340678785 0.02565201504278487 -0.06396979373978989 0.024999999999999998 0.0 -0.024999999999999998 0.0
 0.02565201504278487 -0.06396979373978989 -0.13058713541633385 -0.8141800340678785 -0.024999999999999998 0.0 0.024999999999999998 0.0
1900000000.0 0.024999999999999998 0.0 -0.024999999999999998 0.0 -0.2039543582085892 -0.7938700646999772 0.01988021071905068 -0.06766937988665801
 -0.024999999999999998 0.0 0.024999999999999998 0.0 0.01988021071905068 -0.06766937988665801 -0.2039543582085892 -0.7938700646999772
 -0.2039543582085892 -0.7938700646999772 0.01988021071905068 -0.06766937988665801 0.024999999999999998 0.0 -0.024999999999999998 0.0
 0.01988021071905068 -0.06766937988665801 -0.2039543582085892 -0.7938700646999772 -0.024999999999999998 0.0 0.024999999999999998 0.0
2000000000.0 0.024999999999999998 0.0 -0.024999999999999998 0.0 -0.27468926782219777 -0.7671468752300142 0.013640023312465019 -0.07078121891565385
 -0.024999999999999998 0.0 0.024999999999999998 0.0 0.013640023312465019 -0.07078121891565385 -0.27468926782219777 -0.7671468752300142
 -0.27468926782219777 -0.7671468752300142 0.013640023312465019 -0.07078121891565385 0.024999999999999998 0.0 -0.024999999999999998 0.0
 0.013640023312465019 -0.07078121891565385 -0.27468926782219777 -0.7671468752300142 -0.024999999999999998 0.0 0.024999999999999998 0.0
2100000000.0 0.024999999999999998 0.0 -0.024999999999999998 0.0 -0.3422524903872065 -0.7343101322842955 0.00699741919243879 -0.07325482596028345
 -0.024999999999999998 0.0 0.024999999999999998 0.0 0.00699741919243879 -0.07325482596028345 -0.3422524903872065 -0.7343101322842955
 -0.3422524903872065 -0.7343101322842955 0.00699741919243879 -0.07325482596028345 0.024999999999999998 0.0 -0.024999999999999998 0.0
 0.00699741919243879 -0.07325482596028345 -0.3422524903872065 -0.7343101322842955 -0.024999999999999998 0.0 0.024999999999999998 0.0
2200000000.0 0.024999999999999998 0.0 -0.024999999999999998 0.0 -0.4061349633307279 -0.6957039968663806 2.279024992100977e-05 -0.07504697755840735
 -0.024999999999999998 0.0 0.024999999999999998 0.0 2.279024992100977e-05 -0.07504697755840735 -0.4061349633307279 -0.6957039968663806
 -0.4061349633307279 -0.6957039968663806 2.279024992100977e-05 -0.07504697755840735 0.024999999999999998 0.0 -0.024999999999999998 0.0
 2.279024992100977e-05 -0.07504697755840735 -0.4061349633307279 -0.6957039968663806 -0.024999999999999998 0.0 0.024999999999999998 0.0
2300000000.0 0.024999999999999998 0.0 -0.024999999999999998 0.0 -0.4658617931531803 -0.6517142229895749 -0.0072097297869703775 -0.07612205430500846
 -0.024999999999999998 0.0 0.024999999999999998 0.0 -0.0072097297869703775 -0.07612205430500846 -0.4658617931531803 -0.6517142229895749
 -0.4658617931531803 -0.6517142229895749 -0.0072097297869703775 -0.07612205430500846 0.024999999999999998 0.0 -0.024999999999999998 0.0
 -0.0072097297869703775 -0.07612205430500846 -0.4658617931531803 -0.6517142229895749 -0.024999999999999998 0.0 0.024999999999999998 0.0
2400000000.0 0.024999999999999998 0.0 -0.024999999999999998 0.0 -0.5209957974646016 -0.6027649063867688 -0.014622989654879784 -0.07645232549403762
 -0.024999999999999998 0.0 0.024999999999999998 0.0 -0.014622989654879784 -0.07645232549403762 -0.5209957974646016 -0.6027649063867688
 -0.5209957974646016 -0.6027649063867688 -0.014622989654879784 -0.07645232549403762 0.024999999999999998 0.0 -0.024999999999999998 0.0
 -0.014622989654879784 -0.07645232549403762 -0.5209957974646016 -0.6027649063867688 -0.024999999999999998 0.0 0.024999999999999998 0.0
2500000000.0 0.024999999999999998 0.0 -0.024999999999999998 0.0 -0.5711407089847369 -0.5493149204310005 -0.022137577081225476 -0.0760181698480898
 -0.024999999999999998 0.0 0.024999999999999998 0.0 -0.022137577081225476 -0.0760181698480898 -0.5711407089847369 -0.5493149204310005
 -0.5711407089847369 -0.5493149204310005 -0.022137577081225476 -0.0760181698480898 0.024999999999999998 0.0 -0.024999999999999998 0.0
 -0.022137577081225476 -0.0760181698480898 -0.5711407089847369 -0.5493149204310005 -0.024999999999999998 0.0 0.024999999999999998 0.0
2600000000.0 0.024999999999999998 0.0 -0.024999999999999998 0.0 -0.6159440209495063 -0.49185407646900986 -0.02967259930038211 -0.07480822786906133
 -0.024999999999999998 0.0 0.024999999999999998 0.0 -0.02967259930038211 -0.07480822786906133 -0.6159440209495063 -0.49185407646900986
 -0.6159440209495063 -0.49185407646900986 -0.02967259930038211 -0.07480822786906133 0.024999999999999998 0.0 -0.024999999999999998 0.0
 -0.02967259930038211 -0.07480822786906133 -0.6159440209495063 -0.49185407646900986 -0.024999999999999998 0.0 0.024999999999999998 0.0
2700000000.0 0.024999999999999998 0.0 -0.024999999999999998 0.0 -0.6550994556023957 -0.4308990461570757 -0.03714647942663949 -0.07281948258215076
 -0.024999999999999998 0.0 0.024999999999999998 0.0 -0.03714647942663949 -0.07281948258215076 -0.6550994556023957 -0.4308990461570757
 -0.6550994556023957 -0.4308990461570757 -0.03714647942663949 -0.07281948258215076 0.024999999999999998 0.0 -0.024999999999999998 0.0
 -0.03714647942663949 -0.07281948258215076 -0.6550994556023957 -0.4308990461570757 -0.024999999999999998 0.0 0.024999999999999998 0.0
2800000000.0 0.024999999999999998 0.0 -0.024999999999999998 0.0 -0.6883490400485809 -0.3669890838990029 -0.04447776063483718 -0.07005726654994252
 -0.024999999999999998 0.0 0.024999999999999998 0.0 -0.04447776063483718 -0.07005726654994252 -0.6883490400485809 -0.3669890838990029
 -0.6883490400485809 -0.3669890838990029 -0.04447776063483718 -0.07005726654994252 0.024999999999999998 0.0 -0.024999999999999998 0.0
 -0.04447776063483718 -0.07005726654994252 -0.6883490400485809 -0.3669890838990029 -0.024999999999999998 0.0 0.024999999999999998 0.0
2900000000.0 0.024999999999999998 0.0 -0.024999999999999998 0.0 -0.7154847766157859 -0.30068158798879696 -0.051585910195297645 -0.06653519404078247
 -0.024999999999999998 0.0 0.024999999999999998 0.0 -0.051585910195297645 -0.06653519404078247 -0.7154847766157859 -0.30068158798879696
 -0.7154847766157859 -0.30068158798879696 -0.051585910195297645 -0.06653519404078247 0.024999999999999998 0.0 -0.024999999999999998 0.0
 -0.051585910195297645 -0.06653519404078247 -0.7154847766157859 -0.30068158798879696 -0.024999999999999998 0.0 0.024999999999999998 0.0
3000000000.0 0.024999999999999998 0.0 -0.024999999999999998 0.0 -0.7363498979260475 -0.2325475394652123 -0.05839211553475473 -0.06227501816973895
 -0.024999999999999998 0.0 0.024999999999999998 0.0 -0.05839211553475473 -0.06227501816973895 -0.7363498979260475 -0.2325475394652123
 -0.7363498979260475 -0.2325475394652123 -0.05839211553475473 -0.06227501816973895 0.024999999999999998 0.0 -0.024999999999999998 0.0
 -0.05839211553475473 -0.06227501816973895 -0.7363498979260475 -0.2325475394652123 -0.024999999999999998 0.0 0.024999999999999998 0.0
3100000000.0 0.024999999999999998 0.0 -0.024999999999999998 0.0 -0.7508397000784511 -0.16316685792991828 -0.0648200646608529 -0.057306413705288335
 -0.024999999999999998 0.0 0.024999999999999998 0.0 -0.0648200646608529 -0.057306413705288335 -0.7508397000784511 -0.16316685792991828
 -0.7508397000784511 -0.16316685792991828 -0.0648200646608529 -0.057306413705288335 0.024999999999999998 0.0 -0.024999999999999998 0.0
 -0.0648200646608529 -0.057306413705288335 -0.7508397000784511 -0.16316685792991828 -0.024999999999999998 0.0 0.024999999999999998 0.0
3200000000.0 0.024999999999999998 0.0 -0.024999999999999998 0.0 -0.7589019506259581 -0.09312371362278116 -0.07079670350151973 -0.05166668705844841
 -0.024999999999999998 0.0 0.024999999999999998 0.0 -0.07079670350151973 -0.05166668705844841 -0.7589019506259581 -0.09312371362278116
 -0.7589019506259581 -0.09312371362278116 -0.07079670350151973 -0.05166668705844841 0.024999999999999998 0.0 -0.024999999999999998 0.0
 -0.07079670350151973 -0.05166668705844841 -0.7589019506259581 -0.09312371362278116 -0.024999999999999998 0.0 0.024999999999999998 0.0
3300000000.0 0.024999999999999998 0.0 -0.024999999999999998 0.0 -0.760536871357515 -0.02300183485800686 -0.0762529629760593 -0.04540041574728909
 -0.024999999999999998 0.0 0.024999999999999998 0.0 -0.0762529629760593 -0.04540041574728909 -0.760536871357515 -0.02300183485800686
 -0.760536871357515 -0.02300183485800686 -0.0762529629760593 -0.04540041574728909 0.024999999999999998 0.0 -0.024999999999999998 0.0
 -0.0762529629760593 -0.04540041574728909 -0.760536871357515 -0.02300183485800686 -0.024999999999999998 0.0 0.024999999999999998 0.0
3400000000.0 0.024999999999999998 0.0 -0.024999999999999998 0.0 -0.7557966992320341 0.046620150514724075 -0.08112444893384962 -0.03855902035974438
 -0.024999999999999998 0.0 0.024999999999999998 0.0 -0.08112444893384962 -0.03855902035974438 -0.7557966992320341 0.046620150514724075
 -0.7557966992320341 0.046620150514724075 -0.08112444893384962 -0.03855902035974438 0.024999999999999998 0.0 -0.024999999999999998 0.0
 -0.08112444893384962 -0.03855902035974438 -0.7557966992320341 0.046620150514724075 -0.024999999999999998 0.0 0.024999999999999998 0.0
3500000000.0 0.024999999999999998 0.0 -0.024999999999999998 0.0 -0.7447848321192102 0.11517330166000524 -0.08535208846907334 -0.03120027272082871
 -0.024999999999999998 0.0 0.024999999999999998 0.0 -0.08535208846907334 -0.03120027272082871 -0.7447848321192102 0.11517330166000524
 -0.7447848321192102 0.11517330166000524 -0.08535208846907334 -0.03120027272082871 0.024999999999999998 0.0 -0.024999999999999998 0.0
 -0.08535208846907334 -0.03120027272082871 -0.7447848321192102 0.11517330166000524 -0.024999999999999998 0.0 0.024999999999999998 0.0
3600000000.0 0.024999999999999998 0.0 -0.024999999999999998 0.0 -0.7276545692516241 0.18210284231773632 -0.08888272654463392 -0.023387744605020563
 -0.024999999999999998 0.0 0.024999999999999998 0.0 -0.08888272654463392 -0.023387744605020563 -0.7276545692516241 0.18210284231773632
