! Created with skrf 1.12.0 (http://scikit-rf.org).
# Hz S RI R 50.0 
!freq ReS11 ImS11 ReS12 ImS12 ReS13 ImS13
! ReS14 ImS14
! ReS21 ImS21 ReS22 ImS22 ReS23 ImS23
! ReS24 ImS24
! ReS31 ImS31 ReS32 ImS32 ReS33 ImS33
! ReS34 ImS34
! ReS41 ImS41 ReS42 ImS42 ReS43 ImS43
! ReS44 ImS44
!
0.0 0.024999999999999998 0.0 -0.024999999999999998 0.0 0.8249999999999998 0.0 0.17499999999999996 0.0
 -0.024999999999999998 0.0 0.024999999999999998 0.0 0.17499999999999996 0.0 0.8249999999999998 0.0
 0.8249999999999998 0.0 0.17499999999999996 0.0 0.024999999999999998 0.0 -0.024999999999999998 0.0
 0.17499999999999996 0.0 0.8249999999999998 0.0 -0.024999999999999998 0.0 0.024999999999999998 0.0
100000000.0 0.024999999999999998 0.0 -0.024999999999999998 0.0 0.7791384861491141 -0.0991580643412812 0.1894380093834537 -0.00878676457780668
 -0.024999999999999998 0.0 0.024999999999999998 0.0 0.1894380093834537 -0.00878676457780668 0.7791384861491141 -0.0991580643412812
 0.7791384861491141 -0.0991580643412812 0.1894380093834537 -0.00878676457780668 0.024999999999999998 0.0 -0.024999999999999998 0.0
 0.1894380093834537 -0.00878676457780668 0.7791384861491141 -0.0991580643412812 -0.024999999999999998 0.0 0.024999999999999998 0.0
200000000.0 0.024999999999999998 0.0 -0.024999999999999998 0.0 0.7492603812912514 -0.17317993892028294 0.19357476090071946 -0.026141938522232056
 -0.024999999999999998 0.0 0.024999999999999998 0.0 0.19357476090071946 -0.026141938522232056 0.7492603812912514 -0.17317993892028294
 0.7492603812912514 -0.17317993892028294 0.19357476090071946 -0.026141938522232056 0.024999999999999998 0.0 -0.024999999999999998 0.0
 0.19357476090071946 -0.026141938522232056 0.7492603812912514 -0.17317993892028294 -0.024999999999999998 0.0 0.024999999999999998 0.0
300000000.0 0.024999999999999998 0.0 -0.024999999999999998 0.0 0.7171813290849852 -0.2407345164323567 0.1943002592650121 -0.04485046566967204
 -0.024999999999999998 0.0 0.024999999999999998 0.0 0.1943002592650121 -0.04485046566967204 0.7171813290849852 -0.2407345164323567
 0.7171813290849852 -0.2407345164323567 0.1943002592650121 -0.04485046566967204 0.024999999999999998 0.0 -0.024999999999999998 0.0
 0.1943002592650121 -0.04485046566967204 0.7171813290849852 -0.2407345164323567 -0.024999999999999998 0.0 0.024999999999999998 0.0
400000000.0 0.024999999999999998 0.0 -0.024999999999999998 0.0 0.6816163525860481 -0.3033050235454514 0.1922484670687063 -0.06399899595529143
 -0.024999999999999998 0.0 0.024999999999999998 0.0 0.1922484670687063 -0.06399899595529143 0.6816163525860481 -0.3033050235454514
 0.6816163525860481 -0.3033050235454514 0.1922484670687063 -0.06399899595529143 0.024999999999999998 0.0 -0.024999999999999998 0.0
 0.1922484670687063 -0.06399899595529143 0.6816163525860481 -0.3033050235454514 -0.024999999999999998 0.0 0.024999999999999998 0.0
500000000.0 0.024999999999999998 0.0 -0.024999999999999998 0.0 0.6423061978088078 -0.36126415771043624 0.18769495051232965 -0.08309178339249645
 -0.024999999999999998 0.0 0.024999999999999998 0.0 0.18769495051232965 -0.08309178339249645 0.6423061978088078 -0.36126415771043624
 0.6423061978088078 -0.36126415771043624 0.18769495051232965 -0.08309178339249645 0.024999999999999998 0.0 -0.024999999999999998 0.0
 0.18769495051232965 -0.08309178339249645 0.6423061978088078 -0.36126415771043624 -0.024999999999999998 0.0 0.024999999999999998 0.0
600000000.0 0.024999999999999998 0.0 -0.024999999999999998 0.0 0.5993090491893494 -0.4146545442845751 0.18082434800436914 -0.10177079240491636
 -0.024999999999999998 0.0 0.024999999999999998 0.0 0.18082434800436914 -0.10177079240491636 0.5993090491893494 -0.4146545442845751
 0.5993090491893494 -0.4146545442845751 0.18082434800436914 -0.10177079240491636 0.024999999999999998 0.0 -0.024999999999999998 0.0
 0.18082434800436914 -0.10177079240491636 0.5993090491893494 -0.4146545442845751 -0.024999999999999998 0.0 0.024999999999999998 0.0
700000000.0 0.024999999999999998 0.0 -0.024999999999999998 0.0 0.5528258160766713 -0.46339231422905686 0.17179564658791607 -0.11974490329839221
 -0.024999999999999998 0.0 0.024999999999999998 0.0 0.17179564658791607 -0.11974490329839221 0.5528258160766713 -0.46339231422905686
 0.5528258160766713 -0.46339231422905686 0.17179564658791607 -0.11974490329839221 0.024999999999999998 0.0 -0.024999999999999998 0.0
 0.17179564658791607 -0.11974490329839221 0.5528258160766713 -0.46339231422905686 -0.024999999999999998 0.0 0.024999999999999998 0.0
800000000.0 0.024999999999999998 0.0 -0.024999999999999998 0.0 0.5031372465746231 -0.5073438058212065 0.16076442609388977 -0.13676479721805254
 -0.024999999999999998 0.0 0.024999999999999998 0.0 0.16076442609388977 -0.13676479721805254 0.5031372465746231 -0.5073438058212065
 0.5031372465746231 -0.5073438058212065 0.16076442609388977 -0.13676479721805254 0.024999999999999998 0.0 -0.024999999999999998 0.0
 0.16076442609388977 -0.13676479721805254 0.5031372465746231 -0.5073438058212065 -0.024999999999999998 0.0 0.024999999999999998 0.0
900000000.0 0.024999999999999998 0.0 -0.024999999999999998 0.0 0.45057552553372604 -0.5463611313384578 0.14789154750395186 -0.1526124633815277
 -0.024999999999999998 0.0 0.024999999999999998 0.0 0.14789154750395186 -0.1526124633815277 0.45057552553372604 -0.5463611313384578
 0.45057552553372604 -0.5463611313384578 0.14789154750395186 -0.1526124633815277 0.024999999999999998 0.0 -0.024999999999999998 0.0
 0.14789154750395186 -0.1526124633815277 0.45057552553372604 -0.5463611313384578 -0.024999999999999998 0.0 0.024999999999999998 0.0
1000000000.0 0.024999999999999998 0.0 -0.024999999999999998 0.0 0.39550902289257117 -0.5803011309893484 0.13334650452235564 -0.1670964507950341
 -0.024999999999999998 0.0 0.024999999999999998 0.0 0.13334650452235564 -0.1670964507950341 0.39550902289257117 -0.5803011309893484
 0.39550902289257117 -0.5803011309893484 0.13334650452235564 -0.1670964507950341 0.024999999999999998 0.0 -0.024999999999999998 0.0
 0.13334650452235564 -0.1670964507950341 0.39550902289257117 -0.5803011309893484 -0.024999999999999998 0.0 0.024999999999999998 0.0
1100000000.0 0.024999999999999998 0.0 -0.024999999999999998 0.0 0.3383327919194835 -0.6090365324387949 0.11730833110262325 -0.18004966640224743
 -0.024999999999999998 0.0 0.024999999999999998 0.0 0.11730833110262325 -0.18004966640224743 0.3383327919194835 -0.6090365324387949
 0.3383327919194835 -0.6090365324387949 0.11730833110262325 -0.18004966640224743 0.024999999999999998 0.0 -0.024999999999999998 0.0
 0.11730833110262325 -0.18004966640224743 0.3383327919194835 -0.6090365324387949 -0.024999999999999998 0.0 0.024999999999999998 0.0
1200000000.0 0.024999999999999998 0.0 -0.024999999999999998 0.0 0.2794618322160917 -0.6324630075907997 0.0999652583868084 -0.1913283749878789
 -0.024999999999999998 0.0 0.024999999999999998 0.0 0.0999652583868084 -0.1913283749878789 0.2794618322160917 -0.6324630075907997
 0.2794618322160917 -0.6324630075907997 0.0999652583868084 -0.1913283749878789 0.024999999999999998 0.0 -0.024999999999999998 0.0
 0.0999652583868084 -0.1913283749878789 0.2794618322160917 -0.6324630075907997 -0.024999999999999998 0.0 0.024999999999999998 0.0
1300000000.0 0.024999999999999998 0.0 -0.024999999999999998 0.0 0.21932577830305436 -0.6505038509269304 0.08151367698058362 -0.20081176841551646
 -0.024999999999999998 0.0 0.024999999999999998 0.0 0.08151367698058362 -0.20081176841551646 0.21932577830305436 -0.6505038509269304
 0.21932577830305436 -0.6505038509269304 0.08151367698058362 -0.20081176841551646 0.024999999999999998 0.0 -0.024999999999999998 0.0
 0.08151367698058362 -0.20081176841551646 0.21932577830305436 -0.6505038509269304 -0.024999999999999998 0.0 0.024999999999999998 0.0
1400000000.0 0.024999999999999998 0.0 -0.024999999999999998 0.0 0.15836436542534973 -0.663113154576119 0.06215669126458968 -0.20840178060745254
 -0.024999999999999998 0.0 0.024999999999999998 0.0 0.06215669126458968 -0.20840178060745254 0.15836436542534973 -0.663113154576119
 0.15836436542534973 -0.663113154576119 0.06215669126458968 -0.20840178060745254 0.024999999999999998 0.0 -0.024999999999999998 0.0
 0.06215669126458968 -0.20840178060745254 0.15836436542534973 -0.663113154576119 -0.024999999999999998 0.0 0.024999999999999998 0.0
1500000000.0 0.024999999999999998 0.0 -0.024999999999999998 0.0 0.09702334183173986 -0.6702779544879469 0.04210242786988991 -0.21402297188853234
 -0.024999999999999998 0.0 0.024999999999999998 0.0 0.04210242786988991 -0.21402297188853234 0.09702334183173986 -0.6702779544879469
 0.09702334183173986 -0.6702779544879469 0.04210242786988991 -0.21402297188853234 0.024999999999999998 0.0 -0.024999999999999998 0.0
 0.04210242786988991 -0.21402297188853234 0.09702334183173986 -0.6702779544879469 -0.024999999999999998 0.0 0.024999999999999998 0.0
1600000000.0 0.024999999999999998 0.0 -0.024999999999999998 0.0 0.03575065382365181 -0.6720196191688507 0.021562198354680265 -0.2176223822152209
 -0.024999999999999998 0.0 0.024999999999999998 0.0 0.021562198354680265 -0.2176223822152209 0.03575065382365181 -0.6720196191688507
 0.03575065382365181 -0.6720196191688507 0.021562198354680265 -0.2176223822152209 0.024999999999999998 0.0 -0.024999999999999998 0.0
 0.021562198354680265 -0.2176223822152209 0.03575065382365181 -0.6720196191688507 -0.024999999999999998 0.0 0.024999999999999998 0.0
1700000000.0 0.024999999999999998 0.0 -0.024999999999999998 0.0 -0.025007187737201623 -0.6683946438665929 0.0007485831213743862 -0.2191692946960753
 -0.024999999999999998 0.0 0.024999999999999998 0.0 0.0007485831213743862 -0.2191692946960753 -0.025007187737201623 -0.6683946438665929
 -0.025007187737201623 -0.6683946438665929 0.0007485831213743862 -0.2191692946960753 0.024999999999999998 0.0 -0.024999999999999998 0.0
 0.0007485831213743862 -0.2191692946960753 -0.025007187737201623 -0.6683946438665929 -0.024999999999999998 0.0 0.024999999999999998 0.0
1800000000.0 0.024999999999999998 0.0 -0.024999999999999998 0.0 -0.08480860537280117 -0.6594949524207954 -0.020126515000747792 -0.218654875386873
 -0.024999999999999998 0.0 0.024999999999999998 0.0 -0.020126515000747792 -0.218654875386873 -0.08480860537280117 -0.6594949524207954
 -0.08480860537280117 -0.6594949524207954 -0.020126515000747792 -0.218654875386873 0.024999999999999998 0.0 -0.024999999999999998 0.0
 -0.020126515000747792 -0.218654875386873 -0.08480860537280117 -0.6594949524207954 -0.024999999999999998 0.0 0.024999999999999998 0.0
1900000000.0 0.024999999999999998 0.0 -0.024999999999999998 0.0 -0.14322033725526329 -0.6454477739784146 -0.040853810234275235 -0.2160916706082207
 -0.024999999999999998 0.0 0.024999999999999998 0.0 -0.040853810234275235 -0.2160916706082207 -0.14322033725526329 -0.6454477739784146
 -0.14322033725526329 -0.6454477739784146 -0.040853810234275235 -0.2160916706082207 0.024999999999999998 0.0 -0.024999999999999998 0.0
 -0.040853810234275235 -0.2160916706082207 -0.14322033725526329 -0.6454477739784146 -0.024999999999999998 0.0 0.024999999999999998 0.0
2000000000.0 0.024999999999999998 0.0 -0.024999999999999998 0.0 -0.1998207082571811 -0.6264151411158487 -0.06122853625255164 -0.21151295302981943
 -0.024999999999999998 0.0 0.024999999999999998 0.0 -0.06122853625255164 -0.21151295302981943 -0.1998207082571811 -0.6264151411158487
 -0.1998207082571811 -0.6264151411158487 -0.06122853625255164 -0.21151295302981943 0.024999999999999998 0.0 -0.024999999999999998 0.0
 -0.06122853625255164 -0.21151295302981943 -0.1998207082571811 -0.6264151411158487 -0.024999999999999998 0.0 0.024999999999999998 0.0
2100000000.0 0.024999999999999998 0.0 -0.024999999999999998 0.0 -0.25420278493481563 -0.602593043607424 -0.08105228625995212 -0.20497191463715492
 -0.024999999999999998 0.0 0.024999999999999998 0.0 -0.08105228625995212 -0.20497191463715492 -0.25420278493481563 -0.602593043607424
 -0.25420278493481563 -0.602593043607424 -0.08105228625995212 -0.20497191463715492 0.024999999999999998 0.0 -0.024999999999999998 0.0
 -0.08105228625995212 -0.20497191463715492 -0.25420278493481563 -0.602593043607424 -0.024999999999999998 0.0 0.024999999999999998 0.0
2200000000.0 0.024999999999999998 0.0 -0.024999999999999998 0.0 -0.30597740392531936 -0.5742102647992767 -0.10013476915548752 -0.19654070962551123
 -0.024999999999999998 0.0 0.024999999999999998 0.0 -0.10013476915548752 -0.19654070962551123 -0.30597740392531936 -0.5742102647992767
 -0.30597740392531936 -0.5742102647992767 -0.10013476915548752 -0.19654070962551123 0.024999999999999998 0.0 -0.024999999999999998 0.0
 -0.10013476915548752 -0.19654070962551123 -0.30597740392531936 -0.5742102647992767 -0.024999999999999998 0.0 0.024999999999999998 0.0
2300000000.0 0.024999999999999998 0.0 -0.024999999999999998 0.0 -0.354776059841051 -0.5415269233668406 -0.11829546309909975 -0.18630935392774284
 -0.024999999999999998 0.0 0.024999999999999998 0.0 -0.11829546309909975 -0.18630935392774284 -0.354776059841051 -0.5415269233668406
 -0.354776059841051 -0.5415269233668406 -0.11829546309909975 -0.18630935392774284 0.024999999999999998 0.0 -0.024999999999999998 0.0
 -0.11829546309909975 -0.18630935392774284 -0.354776059841051 -0.5415269233668406 -0.024999999999999998 0.0 0.024999999999999998 0.0
2400000000.0 0.024999999999999998 0.0 -0.024999999999999998 0.0 -0.400253636819248 -0.5048327410076964 -0.13536515030023338 -0.1743844908731101
 -0.024999999999999998 0.0 0.024999999999999998 0.0 -0.13536515030023338 -0.1743844908731101 -0.400253636819248 -0.5048327410076964
 -0.400253636819248 -0.5048327410076964 -0.13536515030023338 -0.1743844908731101 0.024999999999999998 0.0 -0.024999999999999998 0.0
 -0.13536515030023338 -0.1743844908731101 -0.400253636819248 -0.5048327410076964 -0.024999999999999998 0.0 0.024999999999999998 0.0
2500000000.0 0.024999999999999998 0.0 -0.024999999999999998 0.0 -0.4420909669588649 -0.4644450556444693 -0.15118731910709748 -0.16088803463462104
 -0.024999999999999998 0.0 0.024999999999999998 0.0 -0.15118731910709748 -0.16088803463462104 -0.4420909669588649 -0.4644450556444693
 -0.4420909669588649 -0.4644450556444693 -0.15118731910709748 -0.16088803463462104 0.024999999999999998 0.0 -0.024999999999999998 0.0
 -0.15118731910709748 -0.16088803463462104 -0.4420909669588649 -0.4644450556444693 -0.024999999999999998 0.0 0.024999999999999998 0.0
2600000000.0 0.024999999999999998 0.0 -0.024999999999999998 0.0 -0.4799971986567527 -0.42070659953768097 -0.16561942159313567 -0.14595570480039025
 -0.024999999999999998 0.0 0.024999999999999998 0.0 -0.16561942159313567 -0.14595570480039025 -0.4799971986567527 -0.42070659953768097
 -0.4799971986567527 -0.42070659953768097 -0.16561942159313567 -0.14595570480039025 0.024999999999999998 0.0 -0.024999999999999998 0.0
 -0.16561942159313567 -0.14595570480039025 -0.4799971986567527 -0.42070659953768097 -0.024999999999999998 0.0 0.024999999999999998 0.0
2700000000.0 0.024999999999999998 0.0 -0.024999999999999998 0.0 -0.5137119581583777 -0.3739830620439831 -0.17853397687065747 -0.12973546669524336
 -0.024999999999999998 0.0 0.024999999999999998 0.0 -0.17853397687065747 -0.12973546669524336 -0.5137119581583777 -0.3739830620439831
 -0.5137119581583777 -0.3739830620439831 -0.17853397687065747 -0.12973546669524336 0.024999999999999998 0.0 -0.024999999999999998 0.0
 -0.17853397687065747 -0.12973546669524336 -0.5137119581583777 -0.3739830620439831 -0.024999999999999998 0.0 0.024999999999999998 0.0
2800000000.0 0.024999999999999998 0.0 -0.024999999999999998 0.0 -0.5430072883438606 -0.3246604574047275 -0.1898195123395574 -0.11238589304421791
 -0.024999999999999998 0.0 0.024999999999999998 0.0 -0.1898195123395574 -0.11238589304421791 -0.5430072883438606 -0.3246604574047275
 -0.5430072883438606 -0.3246604574047275 -0.1898195123395574 -0.11238589304421791 0.024999999999999998 0.0 -0.024999999999999998 0.0
 -0.1898195123395574 -0.11238589304421791 -0.5430072883438606 -0.3246604574047275 -0.024999999999999998 0.0 0.024999999999999998 0.0
2900000000.0 0.024999999999999998 0.0 -0.024999999999999998 0.0 -0.567689349797005 -0.2731423187775173 -0.1993813370140785 -0.09407446325206206
 -0.024999999999999998 0.0 0.024999999999999998 0.0 -0.1993813370140785 -0.09407446325206206 -0.567689349797005 -0.2731423187775173
 -0.567689349797005 -0.2731423187775173 -0.1993813370140785 -0.09407446325206206 0.024999999999999998 0.0 -0.024999999999999998 0.0
 -0.1993813370140785 -0.09407446325206206 -0.567689349797005 -0.2731423187775173 -0.024999999999999998 0.0 0.024999999999999998 0.0
3000000000.0 0.024999999999999998 0.0 -0.024999999999999998 0.0 -0.5875998704957688 -0.21984674063248227 -0.20714214296503342 -0.07497581700246898
 -0.024999999999999998 0.0 0.024999999999999998 0.0 -0.20714214296503342 -0.07497581700246898 -0.5875998704957688 -0.21984674063248227
 -0.5875998704957688 -0.21984674063248227 -0.20714214296503342 -0.07497581700246898 0.024999999999999998 0.0 -0.024999999999999998 0.0
 -0.20714214296503342 -0.07497581700246898 -0.5875998704957688 -0.21984674063248227 -0.024999999999999998 0.0 0.024999999999999998 0.0
3100000000.0 0.024999999999999998 0.0 -0.024999999999999998 0.0 -0.6026173319745748 -0.16520329255467464 -0.21304243276472923 -0.05526997908053197
 -0.024999999999999998 0.0 0.024999999999999998 0.0 -0.21304243276472923 -0.05526997908053197 -0.6026173319745748 -0.16520329255467464
 -0.6026173319745748 -0.16520329255467464 -0.21304243276472923 -0.05526997908053197 0.024999999999999998 0.0 -0.024999999999999998 0.0
 -0.21304243276472923 -0.05526997908053197 -0.6026173319745748 -0.16520329255467464 -0.024999999999999998 0.0 0.024999999999999998 0.0
3200000000.0 0.024999999999999998 0.0 -0.024999999999999998 0.0 -0.6126578815082575 -0.1096498283709536 -0.21704077261922033 -0.03514057231027596
 -0.024999999999999998 0.0 0.024999999999999998 0.0 -0.21704077261922033 -0.03514057231027596 -0.6126578815082575 -0.1096498283709536
 -0.6126578815082575 -0.1096498283709536 -0.21704077261922033 -0.03514057231027596 0.024999999999999998 0.0 -0.024999999999999998 0.0
 -0.21704077261922033 -0.03514057231027596 -0.6126578815082575 -0.1096498283709536 -0.024999999999999998 0.0 0.024999999999999998 0.0
3300000000.0 0.024999999999999998 0.0 -0.024999999999999998 0.0 -0.6176759617261375 -0.053629215313056346 -0.21911387260743684 -0.014773035292239608
 -0.024999999999999998 0.0 0.024999999999999998 0.0 -0.21911387260743684 -0.014773035292239608 -0.6176759617261375 -0.053629215313056346
 -0.6176759617261375 -0.053629215313056346 -0.21911387260743684 -0.014773035292239608 0.024999999999999998 0.0 -0.024999999999999998 0.0
 -0.21911387260743684 -0.014773035292239608 -0.6176759617261375 -0.053629215313056346 -0.024999999999999998 0.0 0.024999999999999998 0.0
3400000000.0 0.024999999999999998 0.0 -0.024999999999999998 0.0 -0.6176646510577589 0.002413991393750446 -0.21925649710812475 0.005647138761229252
 -0.024999999999999998 0.0 0.024999999999999998 0.0 -0.21925649710812475 0.005647138761229252 -0.6176646510577589 0.002413991393750446
 -0.6176646510577589 0.002413991393750446 -0.21925649710812475 0.005647138761229252 0.024999999999999998 0.0 -0.024999999999999998 0.0
 -0.21925649710812475 0.005647138761229252 -0.6176646510577589 0.002413991393750446 -0.024999999999999998 0.0 0.024999999999999998 0.0
3500000000.0 0.024999999999999998 0.0 -0.024999999999999998 0.0 -0.6126557105162156 0.05803690259041947 -0.21748121007206794 0.02593612634875706
 -0.024999999999999998 0.0 0.024999999999999998 0.0 -0.21748121007206794 0.02593612634875706 -0.6126557105162156 0.05803690259041947
 -0.6126557105162156 0.05803690259041947 -0.21748121007206794 0.02593612634875706 0.024999999999999998 0.0 -0.024999999999999998 0.0
 -0.21748121007206794 0.02593612634875706 -0.6126557105162156 0.05803690259041947 -0.024999999999999998 0.0 0.024999999999999998 0.0
3600000000.0 0.024999999999999998 0.0 -0.024999999999999998 0.0 -0.6027193345186114 0.1128016515907643 -0.21381796127764663 0.045913446121951446
